#Digilent WaveForms Network Analyzer - Bode
#Device Name: Discovery2
#Serial Number: SN:210321B213B5
#Date Time: 2024-02-15 03:29:34.439
#Start: 500 Hz
#Stop: 2e+07 Hz
#Steps: 501
#Wavegen: Wavegen C1
#Amplification: 1 X
#Settle: 10 ms
#MinPeriods: 16 
#Channel: Channel 1
#Range: 5.51697 V
#Offset: -0.000289588 V
#Relative: no
#Channel: Channel 2
#Range: 5.57616 V
#Offset: -0.000284749 V
#Relative: yes

Frequency (Hz),Channel 1 Magnitude (dB),Channel 2 Magnitude (dB),Channel 2 Phase (deg)
500.0000000000009,-0.5420264442607177,-57.17160530320697,-26.7717121475662
510.7097208762208,-0.5420038769414032,-56.67274682920788,-30.98717755237865
521.6488379949326,-0.5423214108644864,-55.94257534544141,-28.28019182542182
532.822264895593,-0.5420125189456269,-56.28067666062468,-26.44974152704332
544.2350203629271,-0.5496198344569416,-56.01360674168076,-23.47629992723085
555.8922306812275,-0.5533333515695467,-55.91691772927704,-23.81081486117402
567.7991319369378,-0.5524432146815766,-56.48298588078363,-26.34228394811425
579.9610723705468,-0.549766807332316,-55.5205815397028,-24.43950357904733
592.383514778869,-0.5562650948909387,-55.73227653724749,-29.43727118157153
605.0720389687805,-0.5590586961541187,-56.88214442263295,-25.47730682671931
618.0323442635009,-0.5586198797087809,-56.76669678147146,-27.78140557014734
631.2702520625768,-0.5618360706077341,-56.60645552014444,-24.38025856820356
644.791708456679,-0.5653753206081289,-55.71864160439329,-27.68926697612201
658.6027868984215,-0.5659055497441038,-56.22069923077972,-18.08928247275556
672.7096909303867,-0.5664804206593368,-55.45698144487537,-28.98261221104816
687.1187569715719,-0.570926530547713,-56.68497475458822,-27.43698301672508
701.8364571635318,-0.5723731190233022,-55.4698852846395,-24.94584916954531
716.8694022774847,-0.5702705057179059,-55.85598298496684,-24.33306475407592
732.2243446836735,-0.5676501408868215,-56.0364428340042,-24.06216587022218
747.9081813843421,-0.572592095798808,-55.206426647035,-32.3502282420972
763.9279571116773,-0.5806911589883867,-55.50152991901384,-30.73544419193842
780.290867492091,-0.5795115380809925,-55.85131751387159,-33.57125910262922
797.004262278297,-0.5809337046838701,-56.73409682574479,-27.83004396177591
814.0756486506131,-0.5856299328823746,-56.25963101652574,-32.81365659123203
831.5126945889645,-0.5761206617123407,-55.69194932748597,-36.14454136177492
849.3232323171252,-0.581427492602157,-55.91382803331814,-26.6244295077705
867.5152618207356,-0.5822885110451387,-55.73399347666141,-30.56957445035926
886.0969544406555,-0.5799271373258069,-56.12781279818141,-26.2217060786486
905.0766565433113,-0.5837840302258493,-56.17908499972741,-36.76510854846931
924.4628932696336,-0.5871580935520611,-55.33245431856241,-34.26386003145522
944.2643723643124,-0.5836164200149653,-56.40679049626566,-37.40074011147371
964.4899880870739,-0.5851152137745954,-54.7108471738604,-43.41923144789078
985.1488252077163,-0.5882771697328589,-56.37256060917756,-36.78841863361843
1006.250163086735,-0.588687573230517,-55.88933103339179,-28.51719703069531
1027.803479843355,-0.5883494487929325,-55.14119494430557,-39.87740722607655
1049.818456612814,-0.5924046187964149,-56.53404623331024,-41.00699424261636
1072.304981894866,-0.5902419428483139,-55.80641519470181,-35.85449172584867
1095.273155995412,-0.5931844947132727,-54.79585713159075,-40.2074722988434
1118.733295563266,-0.5928223220901343,-56.27071386976124,-41.6990368183713
1142.695938224099,-0.5935021140244133,-55.29227447702109,-41.99156439377852
1167.171847313637,-0.5914276502448818,-56.0909824665999,-44.30675489500616
1192.172016712258,-0.5955623865052454,-54.87997949930066,-38.5468415437433
1217.707675783115,-0.5949487226264473,-55.19755620234496,-33.20364103663486
1243.790294416048,-0.5924485080544366,-56.12432137890976,-36.4590302526145
1270.431588179542,-0.5932393507171106,-54.99907358878305,-34.45034643774696
1297.643523583014,-0.5941139764406413,-55.11796323259907,-42.91605265804145
1325.438323451828,-0.5914741436022326,-55.23522073137902,-45.67952466779091
1353.828472417455,-0.5928367384565372,-56.37458496378535,-50.21329918815211
1382.826722525193,-0.5956372055233073,-56.32347086930175,-46.16134989007411
1412.446098962038,-0.5960353049310579,-54.93055234467229,-53.90679344429693
1442.699905907216,-0.5968538658947043,-55.63580540838959,-48.62275009736162
1473.601732508043,-0.5946919847058397,-57.09013051896643,-44.80629043594193
1505.165458983793,-0.5946885757091303,-55.23176587274189,-48.1380102240477
1537.405262860281,-0.5995955806599135,-56.01330167906742,-49.28333489510005
1570.335625338007,-0.5925791656553049,-55.54899115624864,-53.16219010843398
1603.971337796716,-0.600370427722322,-58.17301267121628,-55.99458311471322
1638.327508439235,-0.5970137017444153,-55.78087332089901,-45.41623474173591
1673.419569077666,-0.5981979368103353,-57.16641559146191,-56.72660579126311
1709.263282064918,-0.6002639422949895,-54.78757244101224,-51.809962001199
1745.874747374691,-0.5997162797112126,-55.59799801596271,-51.98995902595011
1783.270409833135,-0.596222223420914,-56.04650538834494,-65.11080888036926
1821.467066505405,-0.5954519486842079,-56.42110024281703,-71.85151819303901
1860.481874240405,-0.5991468254264816,-58.05112606205589,-62.23517244685424
1900.332357377163,-0.5979582550679549,-56.25244569946567,-63.08182165083467
1941.03641561628,-0.5914154406906925,-55.33599471741424,-62.52346442157312
1982.612332059933,-0.5948109765618521,-56.43503000947388,-62.48349337045764
2025.078781424159,-0.5947582085471437,-57.51059135054337,-75.43984346123442
2068.454838426975,-0.5948340208626837,-56.40197059423781,-71.73745828472288
2112.759986356212,-0.5981832923566406,-58.65162872151259,-88.16692941031602
2158.014125820852,-0.5946786734271571,-58.28762118111138,-80.9268597365902
2204.237583689811,-0.5945819438038482,-58.27432368454508,-92.15139894330022
2251.451122222194,-0.5969961749190886,-58.58405539449721,-90.64668947412915
2299.675948393094,-0.5976342680114254,-57.68904362521147,-86.48768992172025
2348.933723419184,-0.5896312732855692,-60.25922466526468,-50.02248342706573
2399.246572488303,-0.5934113706320414,-58.78303271389484,-108.2918573745114
2450.637094697454,-0.5999693676571756,-58.00459443052442,-94.23965379418514
2503.128373203692,-0.5923403123249654,-59.01919166086564,-96.22173836811211
2556.743985592407,-0.59090277416718,-58.80827533303134,-114.5618231659935
2611.508014467701,-0.59066551397359,-61.05665616038202,-118.9860587311171
2667.445058269619,-0.5923934303896351,-58.60163994062177,-49.47534990616149
2724.580242323056,-0.598000433828227,-59.01816606578787,-128.0126406530086
2782.939230123342,-0.5917120348311172,-59.22363449568622,-91.94659603763441
2842.548234863546,-0.5896094940023129,-58.70548846414356,-121.4770735889276
2903.434031208703,-0.5923837913693757,-63.48914427340817,-39.41846984788098
2965.623967322229,-0.5931130829729907,-62.76465841075676,-95.31308748007581
3029.145977149923,-0.5936173255311132,-61.93011182801742,-26.62723513518114
3094.028592967117,-0.5949491217411919,-61.34843445172865,-69.8794334661076
3160.300958194555,-0.5915162128985958,-59.19089708033044,-88.7176937932894
3227.992840488783,-0.5916500262827217,-61.97777889617019,-102.0383842659891
3297.134645112921,-0.5898747199767083,-62.65541206259678,-84.02004937117002
3367.757428593864,-0.5889144858524807,-61.11752909409689,-16.90662259890725
3439.892912671974,-0.5875353445861804,-61.92796033899258,14.22048392311263
3513.573498549581,-0.5880834758617713,-61.93784375084476,-59.14795385052787
3588.832281444676,-0.5868061150011457,-61.58845518146934,18.35718315749817
3665.703065456351,-0.5945737985631943,-58.78481108216831,-29.04378484374475
3744.220378748634,-0.5827155791036303,-60.93423411815743,50.95222941289303
3824.419489059534,-0.5899317297718549,-60.74523938306187,40.53002053346843
3906.336419542335,-0.58696014131931,-60.55039872662709,149.786545834757
3990.007964946156,-0.5865617782296383,-59.50505735359164,94.43845638096573
4075.471708143087,-0.5901265216769241,-57.6489755476824,80.30288421351307
4162.766037009369,-0.5935261560586393,-60.10619934666336,139.7321345328706
4251.930161668121,-0.5877787148658365,-58.61062778143869,127.3385241875332
4343.004132101412,-0.586750513291001,-59.16754308855523,122.6917743037835
4436.028856139559,-0.5905110766182041,-60.27853932220643,122.1093898901379
4531.046117835777,-0.5903616714104053,-58.01592752110349,108.2346009067906
4628.098596234379,-0.5873296741518313,-58.07583584783777,103.908547709691
4727.229884540964,-0.5905199570182887,-56.38909880428849,110.9840056448323
4828.484509703277,-0.5913513504884805,-56.19393481673956,104.4361341285321
4931.907952411419,-0.5935218007091795,-57.68637055044331,98.69129041609565
5037.546667526489,-0.5880654525912032,-56.19717884977939,94.10314516819432
5145.448104946764,-0.5907778829797856,-55.86417383526545,95.75495676991173
5255.660730920867,-0.5910483872316362,-57.12403295241062,87.7558970952775
5368.234049817411,-0.5909311291535854,-55.27314545203996,85.26231831237196
5483.218626360933,-0.5963953360171668,-56.32215194025068,84.39236125925073
5600.666108344157,-0.5895097730487643,-55.14000560763995,77.79590398106426
5720.629249826698,-0.5995792319022617,-54.63733116559872,76.68625119722178
5843.161934830659,-0.5879198210735923,-56.08177917075814,72.96672869348254
5968.31920154383,-0.592923561305342,-55.15610274021004,79.59582199984314
6096.157267041259,-0.6038831557138974,-56.62169763175367,64.40886125944772
6226.733552536361,-0.598127063646863,-55.99433475887554,63.28165174870766
6360.106709172869,-0.5843337756931328,-54.71538416133693,59.38406828255952
6496.336644369291,-0.608953979365614,-53.98214343802563,60.5620302546359
6635.484548727598,-0.5916492791546585,-56.22022662068612,57.07101295680953
6777.612923518275,-0.5939639490483249,-53.97262269115237,56.50628820052727
6922.78560875415,-0.5961148700746493,-55.90379815842779,54.78393948329982
7071.067811865488,-0.5961140597322248,-52.94299166955449,62.41857578393193
7222.526136989285,-0.5961856515828514,-54.3777026718403,52.34312200118484
7377.228614885992,-0.591366626887151,-53.19590035146376,59.47451645613059
7535.244733496967,-0.5954371687487482,-53.2301694026464,55.5619563693859
7696.645469156483,-0.6008362949387382,-53.9761534291755,48.90706403702909
7861.503318472251,-0.5929657770895811,-53.86428270670645,51.30252276113291
8029.89233088887,-0.6073222125219293,-53.69614971347958,49.51642049516165
8201.888141948706,-0.5992466041087651,-54.90528567911105,46.23996443274532
8377.568007265194,-0.6079835980007906,-53.75496266872808,40.48450913843411
8557.010837223905,-0.5960175192134307,-54.23597118945122,45.22755617744959
8740.297232426808,-0.6036403152766244,-54.79480392891139,35.68648406744065
8927.509519895782,-0.5934691120103771,-53.42832496572654,37.76680303354119
9118.731790051532,-0.6051009279653591,-54.94120498510497,45.51246930526362
9314.049934484652,-0.5890150318775738,-54.62659363636489,40.94078985563021
9513.551684535661,-0.599299691556568,-52.39402083408392,43.1946764726088
9717.326650701387,-0.5950203414415776,-53.74604794743192,41.03491729671526
9925.466362885505,-0.6003938527348559,-54.42199843147417,28.03211140398692
10138.06431151113,-0.598966916879959,-53.81520123103619,35.75452908537281
10355.21598951402,-0.5945687661653616,-51.80640019499641,36.64362222854858
10577.01893523534,-0.6111443691221553,-54.74631570880742,39.47311916989067
10803.57277623305,-0.5875990876923692,-54.26836492394443,27.22207433012058
11034.97927403182,-0.5987003454355795,-52.79344580943323,25.57615569558506
11271.34236983131,-0.5998038001768994,-53.78142857901512,46.10805985493808
11512.76823119371,-0.593334798050397,-52.51837874116664,27.28886133766956
11759.3652997311,-0.5897427970954451,-53.19676827633483,31.57134029016491
12011.24433981434,-0.5933197193762898,-52.83461407503214,34.17996723392945
12268.5184883253,-0.5940312734673473,-53.79662045650888,19.66264173137209
12531.3033054747,-0.6044247104072362,-53.42418416479174,28.51142177400282
12799.71682670847,-0.5908308298868903,-53.99601492762074,35.09997051057371
13073.87961572586,-0.5882750261697781,-53.43203553275289,36.75812315453386
13353.91481863329,-0.6006304693020729,-55.89371068361626,37.87194988014316
13639.94821925805,-0.5895880279038362,-53.84728846567373,26.26241700434762
13932.10829564673,-0.5889932927420976,-54.24758107129933,36.45049797603431
14230.526277774,-0.587996645480215,-54.56339949430608,37.82222407787243
14535.33620648734,-0.5940642007556934,-53.41195901350639,26.02471577598473
14846.67499371431,-0.593779619120006,-52.87593986040467,22.92678526257433
15164.68248395956,-0.5889131289155892,-54.07024809507742,18.92129414512062
15489.50151711896,-0.6060701255211389,-53.49434212871706,40.17541885263155
15821.27799263921,-0.588008174050326,-54.57837224463017,11.83698006091391
16160.16093505169,-0.5876373736380462,-54.85534307364218,31.22496277601951
16506.30256091006,-0.5835046059852812,-53.47106463874581,23.71363286384348
16859.85834716162,-0.5936459348654256,-53.7166510183205,36.46273615406083
17220.98710098302,-0.5892357019774002,-51.93691433359038,24.57275539600472
17589.85103111202,-0.5862810676996031,-52.41485719505364,28.53647422607623
17966.615820707,-0.5846295476693844,-51.86167085593106,33.45135419166913
18351.45070176709,-0.5978665003713404,-52.05440541972529,18.34838315588294
18744.52853114634,-0.5794520042484731,-53.11876134792404,37.34140167462753
19146.02586819613,-0.5814677559262074,-52.09283546742213,31.83208235451787
19556.12305407065,-0.5869616333195107,-51.76217723419331,24.91420496091082
19975.00429273085,-0.5790721315526057,-52.89121610551412,18.2776607676388
20402.85773368371,-0.5809351737528377,-51.35334860178087,30.22694955890761
20839.87555649364,-0.5825621430499722,-51.76742806618818,19.36749684389972
21286.25405710405,-0.5959142878807508,-52.75222159950448,19.15312977596452
21742.1937360078,-0.5828103663213684,-51.13015082203583,29.27542868810072
22207.89938830645,-0.5844751050630218,-51.66657689349417,22.34707559740399
22683.58019569833,-0.5762820619525215,-50.56545065090543,18.56532514305308
23169.44982043686,-0.5842844558614617,-50.17542188164137,16.96655628151976
23665.72650130175,-0.5929286551023558,-51.6397785715907,11.29091447738505
24172.63315162553,-0.5800507072572553,-49.05346823339501,18.08495335269755
24690.39745941987,-0.587947555547119,-50.53212830760724,20.21541748304851
25219.25198964647,-0.5926670553445217,-51.0780438904842,12.79808345575209
25759.43428867878,-0.5780462909557209,-50.04941198868042,25.69886736627702
26311.18699100093,-0.5802141801591404,-49.27809415860818,16.96407850149248
26874.75792819219,-0.5739749362184128,-50.51923092793977,18.24101152576031
27450.400240246,-0.576792807824654,-49.67199030542773,11.99570664017697
28038.37248927307,-0.5709996455309511,-51.45275005853723,12.97577550851617
28638.93877564026,-0.5818877615229926,-48.92967868994977,16.42940844348046
29252.36885659674,-0.5838793619849699,-50.59837122133985,6.497662108414151
29878.93826744147,-0.5746602014415811,-48.33392300600474,9.3774451413463
30518.92844528567,-0.5925156140222186,-48.65917688462839,-0.5952817420494909
31172.62685546631,-0.5763940901651711,-47.75813923675096,-8.401393223259145
31840.32712066748,-0.5715140818015396,-48.49369357970231,-1.245853009463359
32522.32915280724,-0.5748115672658347,-47.75845877962512,-5.519538160584109
33218.93928774943,-0.5750161191577442,-48.95547871194591,-21.68188539516619
33930.47042290118,-0.5801268627637693,-49.36022731384626,-14.15213388047728
34657.24215775735,-0.5758847793816388,-46.80342535853234,-14.98390906515855
35399.58093745563,-0.5830563167503076,-49.13412030034043,-25.15702518832731
36157.8201994062,-0.5711896835385184,-48.13137326213482,-30.34206928784371
36932.30052306253,-0.5598721336218779,-48.21329371447991,-23.09899071460452
37723.36978289979,-0.5894444017135144,-48.36380771678663,-45.68599293073369
38531.38330467035,-0.5832352568161829,-48.7331528705791,-43.93306754300414
39356.70402500563,-0.5881831471876057,-48.04480838985613,-46.07459662612193
40199.70265443721,-0.5885350955829545,-50.67308321901361,-59.37247998975162
41060.75784390931,-0.5896202111663038,-52.57596844011701,-47.48309081841378
41940.25635485791,-0.577440117813195,-53.2351681758741,-44.49613475146068
42838.59323293314,-0.6056107770100777,-52.98924631724599,-17.16298675102048
43756.17198544241,-0.5972126351219766,-53.24230011770769,-1.002357545561728
44693.40476259428,-0.604410935530421,-55.75491626290807,-56.40144847495901
45650.71254262483,-0.6047485232354659,-55.1892075613467,-9.284355931709579
46628.5253208889,-0.6012054554521223,-52.9954862605352,-6.223737269521455
47627.28230300184,-0.6141642650107647,-53.08736439228267,-27.29558894925822
48647.43210211794,-0.5977589086768499,-52.45241724254856,-12.86680767980365
49689.43294043497,-0.5920473316689763,-52.63671383763481,-11.40352705103808
50753.75285501438,-0.6028048665076725,-51.69789736022395,-13.54485524350623
51840.86990801002,-0.6003335251147006,-51.79319448087572,-8.139977279370394
52951.27240140039,-0.6027221448384285,-50.88951004022813,-22.22803683263552
54085.4590963197,-0.6062756514153407,-50.70771917539353,-39.4712719429345
55243.93943708728,-0.6093322065175864,-50.06315787976585,-17.80418300656309
56427.23378003521,-0.6263235780167058,-49.47249871600501,-25.01751588029799
57635.87362723792,-0.6124212503021468,-49.44267263546827,-37.63666936506216
58870.40186524752,-0.6092277442498709,-51.66865156552571,-21.85188062295553
60131.37300894284,-0.6139046784194638,-49.25953034454704,-42.24754843011091
61419.35345060204,-0.6204090662172719,-50.55546827482105,-37.41225904370803
62734.92171430973,-0.6284152518594922,-48.79210115412442,-47.10319821655556
64078.66871581318,-0.6175266812904892,-50.57495279865834,-43.45503825854919
65451.19802794535,-0.6318659012685129,-48.83707084687939,-37.53051242721399
66853.12615173226,-0.6457737727633388,-48.68649781273558,-58.15508089956835
68285.08279330778,-0.6352800561195383,-50.34137067214925,-58.61137962122672
69747.7111467595,-0.644798832902048,-51.41357293802454,-71.27402385213783
71241.66818303343,-0.6613935954568035,-52.31939131420197,-65.68920190877512
72767.62494502655,-0.6584610402012593,-50.16071954022461,-67.25824038498591
74326.26684899985,-0.6613810574643693,-49.44795673569587,-55.05523870326977
75918.29399244821,-0.6663915589914338,-49.20902968942393,-57.42100237258119
77544.42146856396,-0.6742566840434441,-52.86183472542604,-72.41892312851647
79205.37968743649,-0.6894179606790896,-51.14110030719161,-65.76008261715755
80901.91470413134,-0.6880825856286505,-50.84865563873169,-59.59038657151665
82634.78855379723,-0.6961773016123546,-50.75027173263939,-94.09824943786337
84404.77959395046,-0.6998013381991617,-51.93899825940733,-83.20005789673803
86212.6828540905,-0.7160982140889873,-53.65648676880478,-86.95316934298683
88059.31039280516,-0.7141237217668951,-54.88185297309711,-114.294697095139
89945.49166252385,-0.7257634760059194,-50.90784612104937,-96.49037225497572
91872.07388208374,-0.73156413787025,-56.25505051320867,-45.42407443374806
93839.92241727677,-0.7454011803850118,-52.5259250533167,-96.15865519913449
95849.921169547,-0.7615664936072891,-56.99656163941449,-59.33272375771956
97902.97297301404,-0.7627165884441033,-50.97983990944159,-114.562087392362
100000.0000000001,-0.777281154491905,-55.08519880071906,-95.39784317391857
102141.9441752439,-0.7835852187136407,-50.81670893202975,-31.85363438291855
104329.7675989865,-0.788693681842264,-53.85705424502466,91.58428791442088
106564.4529791185,-0.8144695022718116,-54.82055782726248,54.05969177616429
108847.0040725852,-0.815210198340812,-54.56195603612427,53.73839815468915
111178.4461362454,-0.8329711760326136,-52.443942654951,-35.09811273796805
113559.8263873875,-0.8333324074244288,-51.90615440510587,23.4182825883237
115992.2144741091,-0.8449539411059824,-53.31616999031846,-8.959066559045631
118476.7029557737,-0.8643733886822534,-51.94803969263213,52.19845038273106
