#Digilent WaveForms Network Analyzer - Bode
#Device Name: Discovery2
#Serial Number: SN:210321B213B5
#Date Time: 2024-02-15 03:40:53.875
#Start: 500 Hz
#Stop: 2e+07 Hz
#Steps: 501
#Wavegen: Wavegen C1
#Amplification: 1 X
#Settle: 10 ms
#MinPeriods: 16 
#Channel: Channel 1
#Range: 5.51697 V
#Offset: -0.000289588 V
#Relative: no
#Channel: Channel 2
#Range: 5.57616 V
#Offset: -0.000284749 V
#Relative: yes

Frequency (Hz),Channel 1 Magnitude (dB),Channel 2 Magnitude (dB),Channel 2 Phase (deg)
500.0000000000009,-17.37694539130655,-63.8028482333271,-102.0225741820515
510.7097208762208,-17.43227384659917,-65.52262989641422,-88.45840144726655
521.6488379949326,-17.4718886621677,-65.88134583932668,-90.05311775368975
532.822264895593,-17.50680843158927,-66.43326176983069,-93.08031763047353
544.2350203629271,-17.53870990583757,-63.83853194534537,-84.52339825938863
555.8922306812275,-17.56804332748767,-64.65866656302738,-89.86373544217948
567.7991319369378,-17.59359473135186,-64.99107489408077,-91.41680798628217
579.9610723705468,-17.61815886479106,-64.15481126311758,-87.64957308094866
592.383514778869,-17.64080946619238,-64.73233251251963,-86.00050381985176
605.0720389687805,-17.66352628865654,-64.86625830345217,-79.36317755527774
618.0323442635009,-17.68348556835204,-63.85174651637421,-87.61545035888946
631.2702520625768,-17.7040286146331,-64.46959341374098,-87.82920247316106
644.791708456679,-17.72212637660837,-63.37506948540306,-88.91786732543147
658.6027868984215,-17.73945893002176,-62.59160462515469,-82.27528313912212
672.7096909303867,-17.75709093400481,-63.76124981842118,-82.20205575733937
687.1187569715719,-17.77318511214754,-64.02781505678948,-75.92600648486354
701.8364571635318,-17.78840814151787,-64.36705100633242,-79.41605750789493
716.8694022774847,-17.80371779455864,-64.06058616987141,-81.42042313451725
732.2243446836735,-17.81725873904997,-63.15356701402627,-85.77892193381891
747.9081813843421,-17.83173833499372,-63.23950139058117,-78.39964691484751
763.9279571116773,-17.84574153926737,-63.69206349643954,-84.41430172317637
780.290867492091,-17.85932101400458,-63.23890815143866,-82.99229803759141
797.004262278297,-17.87097124273474,-62.99089003564079,-71.12799892959609
814.0756486506131,-17.88402677332782,-63.07534451198446,-82.7801045659553
831.5126945889645,-17.89439538638609,-62.13286078741424,-84.26664106094456
849.3232323171252,-17.90699423858475,-63.216925640217,-81.88538443742698
867.5152618207356,-17.91761132317574,-62.53199731085159,-83.2400416890416
886.0969544406555,-17.92734097840686,-62.27147728336468,-85.73103279884245
905.0766565433113,-17.93998109982838,-61.76040469892716,-86.00840253230095
924.4628932696336,-17.94800915151525,-61.90832693913306,-81.06714928004621
944.2643723643124,-17.95807022544025,-62.4936376358469,-88.13113066297555
964.4899880870739,-17.96603883209504,-61.45643653212525,-89.52136304208622
985.1488252077163,-17.97555931689218,-61.85868335249499,-84.5002572908414
1006.250163086735,-17.98332708495614,-61.6187319282374,-87.50943681530919
1027.803479843355,-17.99153217077802,-61.14923922486476,-84.53769203519509
1049.818456612814,-18.00074041139024,-61.34597135066041,-94.40036096246388
1072.304981894866,-18.00887697055715,-60.44203319625643,-86.37262110435611
1095.273155995412,-18.01529765312685,-60.37007053459949,-88.85027111966718
1118.733295563266,-18.02173595249405,-60.84048885874495,-85.90280393837777
1142.695938224099,-18.02824871994614,-60.01806384849658,-91.23781542162345
1167.171847313637,-18.03558362730295,-60.68471519836396,-93.43119969105199
1192.172016712258,-18.04051614018842,-60.33124602325424,-96.90825517862444
1217.707675783115,-18.04774282666732,-60.99615615392834,-90.51324741768998
1243.790294416048,-18.05300538056773,-60.47624380387713,-91.80346508363046
1270.431588179542,-18.05904378047875,-60.02365702585639,-97.19016304101621
1297.643523583014,-18.06506283040466,-59.34823800575145,-97.87788893876628
1325.438323451828,-18.06803551320944,-60.12914740864566,-100.0792454184038
1353.828472417455,-18.07456796343477,-59.10901693120039,-98.06909531460732
1382.826722525193,-18.07829118112948,-59.59225082035378,-97.93600985996125
1412.446098962038,-18.08206297255834,-60.17840055103878,-97.64812586901522
1442.699905907216,-18.08749558062117,-59.2446035880895,-104.7165287340503
1473.601732508043,-18.09122549012738,-58.35002174890556,-102.1373726932084
1505.165458983793,-18.09560475114242,-58.57835871516375,-106.9609145757466
1537.405262860281,-18.09910067073553,-58.92571751330482,-102.1016476344413
1570.335625338007,-18.10411596175537,-58.70008538905429,-114.2595765013981
1603.971337796716,-18.10703405025917,-58.63075120918707,-109.6700223090507
1638.327508439235,-18.11070080793862,-58.56937701447752,-109.9213415700312
1673.419569077666,-18.11415651234249,-58.16490071718505,-114.3777389879587
1709.263282064918,-18.11702270592722,-57.34461758807534,-119.4832456609477
1745.874747374691,-18.1208457589831,-57.92460753623848,-119.9598944270183
1783.270409833135,-18.12304139047465,-58.10647852671153,-118.3802546486451
1821.467066505405,-18.12576510538079,-57.66734423672305,-120.464920643821
1860.481874240405,-18.12823050737982,-58.64582505674817,-119.9510668148286
1900.332357377163,-18.13188580838221,-58.25024869628965,-123.1405320988245
1941.03641561628,-18.13608671539893,-57.27912474540388,-128.7928846153948
1982.612332059933,-18.13586698232849,-58.3939731374553,-124.2894987255403
2025.078781424159,-18.13857520544721,-56.71664728448788,-128.8798895959374
2068.454838426975,-18.13981421483551,-57.87943943226931,-124.8111122639521
2112.759986356212,-18.14208286761169,-56.80494313032197,-130.2436485017276
2158.014125820852,-18.14444619217436,-56.51762338621117,-137.0127422458417
2204.237583689811,-18.14715334409366,-56.75540047746707,-139.135492032735
2251.451122222194,-18.14893481092665,-56.77179120599522,-140.4997825137323
2299.675948393094,-18.14925160187452,-57.11113443252997,-140.2054219615139
2348.933723419184,-18.15150815095092,-56.90853151905088,-147.590722981683
2399.246572488303,-18.15369266046606,-56.23574576060459,-148.4827967813665
2450.637094697454,-18.15527097916586,-56.03459963086958,-149.6394639245175
2503.128373203692,-18.15568150410499,-56.33600741032971,-145.6855037433785
2556.743985592407,-18.1582756811322,-56.13281817242458,-154.6998359761262
2611.508014467701,-18.15886560849438,-55.75265181962092,-156.1757368605207
2667.445058269619,-18.15984819025211,-55.97535202812725,-157.9411970951025
2724.580242323056,-18.16165296388526,-55.54301903344207,-160.4606466486535
2782.939230123342,-18.16260306226556,-56.18246312022437,-162.1633110177932
2842.548234863546,-18.16446154598741,-55.5778260236123,-165.5661556727719
2903.434031208703,-18.164544324369,-55.78685019165632,-169.5079011401254
2965.623967322229,-18.16633866038434,-55.59472678314089,-169.3047400547057
3029.145977149923,-18.16674071046976,-54.81880556049727,-170.6644102015478
3094.028592967117,-18.16722512993724,-55.62480160197266,-105.7275804341188
3160.300958194555,-18.1694138891201,-55.29644675839911,-69.43146058546625
3227.992840488783,-18.1704061251549,-54.58840814806471,-0.813387025723739
3297.134645112921,-18.17116151094679,-55.28249707286693,33.87643021154553
3367.757428593864,-18.17254456998454,-55.08598551119757,138.0627491048042
3439.892912671974,-18.1724448119401,-54.33379878541179,134.7386027353573
3513.573498549581,-18.17361341628976,-54.98333954669568,168.9219028138392
3588.832281444676,-18.17425728122018,-54.75690139832623,163.994531094341
3665.703065456351,-18.17574007616289,-54.4501516751707,161.2431535261011
3744.220378748634,-18.17743854954961,-54.74099169760999,159.3505659332903
3824.419489059534,-18.17837018385463,-54.93701766346327,155.4950674728572
3906.336419542335,-18.17986578981474,-54.15338391236794,152.2228607181922
3990.007964946156,-18.18143102613104,-54.41448157221829,149.8497829276561
4075.471708143087,-18.18187946923577,-55.19175487625845,151.7897730322684
4162.766037009369,-18.18348666053154,-54.79026771387862,147.3819624273301
4251.930161668121,-18.18446796522402,-54.31538220042921,142.0283321233109
4343.004132101412,-18.18029619178592,-54.07106979608479,138.0941156388788
4436.028856139559,-18.16808639622887,-54.17915167439902,138.4171807891458
4531.046117835777,-18.17020499503504,-54.14900036105881,133.9318277924979
4628.098596234379,-18.15314554347542,-54.68739258787628,129.3856977046185
4727.229884540964,-18.15619500054709,-54.25807340641562,128.1770238364262
4828.484509703277,-18.15421083146838,-54.29619639937531,122.1970707828531
4931.907952411419,-18.15760850676211,-54.77560002135888,123.9095017069553
5037.546667526489,-18.16105262953104,-54.29288354666567,118.3683615827218
5145.448104946764,-18.16359483965627,-54.14393284092087,117.6914114970375
5255.660730920867,-18.16827026435815,-54.37399790009614,113.8718010431347
5368.234049817411,-18.16746890261811,-54.83782272134175,111.1346249164279
5483.218626360933,-18.16848596340979,-54.40043887146862,109.3358326021371
5600.666108344157,-18.1698600913093,-54.86824392499771,104.4435476058134
5720.629249826698,-18.17691368560013,-54.4531924272405,106.8201996659968
5843.161934830659,-18.17304205174899,-54.44800523235589,102.98431859125
5968.31920154383,-18.17374191247625,-55.02442880687506,100.9487768411906
6096.157267041259,-18.18780640145362,-55.51162432351209,96.2563143401598
6226.733552536361,-18.17611726731581,-54.99457262289249,95.9244916697899
6360.106709172869,-18.17787298570738,-54.60870246609034,96.07789173984929
6496.336644369291,-18.19346869419165,-55.27421806528,93.1508818217076
6635.484548727598,-18.17828816173433,-54.8036478512336,90.29545876500273
6777.612923518275,-18.1774692239188,-55.05498581463399,93.42072069958854
6922.78560875415,-18.18749772235719,-55.14704476068538,87.82029328094652
7071.067811865488,-18.17854455387452,-55.51132486627418,84.22002887782511
7222.526136989285,-18.1873657843568,-55.13589483896511,79.83832775825367
7377.228614885992,-18.18077618829956,-55.30193340700204,79.58830990492054
7535.244733496967,-18.18069327463398,-55.30460999411795,78.24721046583619
7696.645469156483,-18.18442680194492,-55.21668790071899,78.47483194995586
7861.503318472251,-18.18062049598629,-54.92954634792518,70.42897036042307
8029.89233088887,-18.19035612924199,-55.04885967782133,71.9240382415026
8201.888141948706,-18.18065642539277,-55.27503599072767,71.09109990823588
8377.568007265194,-18.19284253486158,-55.36323823110546,68.34261528394335
8557.010837223905,-18.18193089634327,-55.2765779776595,67.37284994479462
8740.297232426808,-18.19362689574326,-55.46387721259617,64.74003371634915
8927.509519895782,-18.18134055674081,-56.28570545304029,62.92648976110083
9118.731790051532,-18.18923623998581,-55.84484738349586,64.95208942162449
9314.049934484652,-18.18293651441569,-55.34497006587726,64.72751332998116
9513.551684535661,-18.1852412476785,-57.08154019664047,65.4530957115953
9717.326650701387,-18.18353830917294,-55.30926431764045,57.73941684070725
9925.466362885505,-18.18198838449952,-56.22666806468519,61.71244891213807
10138.06431151113,-18.18733911533742,-56.84562879853126,55.56892745438036
10355.21598951402,-18.18328759670156,-56.81445010937853,59.12186986577741
10577.01893523534,-18.19326682335495,-57.38271900220845,56.17572095380392
10803.57277623305,-18.18263891477843,-56.57846628807762,53.92867696390566
11034.97927403182,-18.18297959993972,-56.68207773232277,49.94452382143641
11271.34236983131,-18.18793110213507,-56.91366918920308,50.21909932220134
11512.76823119371,-18.18419171418224,-56.48873218559753,51.57143571222311
11759.3652997311,-18.18594691922958,-57.17032294511515,58.66666432617787
12011.24433981434,-18.18393864882,-57.88303014317705,52.39155017140765
12268.5184883253,-18.1840935286631,-56.36549842684695,47.11470645072519
12531.3033054747,-18.19086130774111,-57.04229663671522,52.92644440334486
12799.71682670847,-18.18376515458131,-56.52925928637828,50.57358212999848
13073.87961572586,-18.18553459952062,-56.76973542643078,58.34780405935045
13353.91481863329,-18.19048238196181,-57.73660939403685,53.14593468240213
13639.94821925805,-18.18419654943587,-57.86903532653183,49.91634738253991
13932.10829564673,-18.1837641735436,-56.96181035414307,57.14622506315575
14230.526277774,-18.18573949089388,-57.08439947626179,51.58164354328787
14535.33620648734,-18.18641860407893,-56.39001333618921,50.24817233705869
14846.67499371431,-18.18429738058231,-56.29061435047606,49.10305501167524
15164.68248395956,-18.18481135079565,-55.94527596491896,49.91838075317044
15489.50151711896,-18.20050880740427,-56.03949283121235,48.03924227028771
15821.27799263921,-18.1839157484238,-55.86392899539281,52.01822484930229
16160.16093505169,-18.18439298632701,-55.32500398719279,49.50219068882252
16506.30256091006,-18.18465115637406,-55.47088138859382,44.43974998435994
16859.85834716162,-18.19276362374736,-54.75788574934857,46.29938397789239
17220.98710098302,-18.18320160622443,-55.78342725855511,51.34490201366124
17589.85103111202,-18.18488286758111,-54.47213927241211,45.28914338113016
17966.615820707,-18.18473729365889,-54.83467330235285,41.18135534368947
18351.45070176709,-18.19729054784139,-54.97852847064141,43.97816460155828
18744.52853114634,-18.18527620187566,-54.46413622634492,45.007891757382
19146.02586819613,-18.18577175217267,-54.59421638079176,46.57286264793308
19556.12305407065,-18.18612943959964,-53.88833880363869,38.71443228140208
19975.00429273085,-18.18827526748953,-53.85198281004452,46.45875138321077
20402.85773368371,-18.18899356346801,-53.08204020556565,42.94284228514103
20839.87555649364,-18.1886888169373,-53.54252583883853,40.91309975954994
21286.25405710405,-18.19429009374772,-53.72859157337593,34.1250451841177
21742.1937360078,-18.18778145450582,-53.63786364599016,40.97334803611234
22207.89938830645,-18.1926473672027,-53.17149844439705,35.17194620949168
22683.58019569833,-18.18981790644926,-52.25304740927945,31.01430632764039
23169.44982043686,-18.18788346677622,-52.38881295290292,33.98140983113394
23665.72650130175,-18.19779200662285,-52.42793536420375,30.84642553686706
24172.63315162553,-18.18840139376298,-52.41522982598813,30.43505770407386
24690.39745941987,-18.18950305186659,-51.73300829481391,25.5738277271774
25219.25198964647,-18.20126423792426,-52.27513374625778,22.77821234674377
25759.43428867878,-18.18874678110111,-50.93799397901236,22.8778572832679
26311.18699100093,-18.18940622972672,-51.42559256648941,21.27443041976117
26874.75792819219,-18.19529139635672,-50.75056453744308,20.43763365024054
27450.400240246,-18.19264727378189,-51.97983649733226,17.7472467326636
28038.37248927307,-18.19221110876305,-50.75949939770932,11.93029810014232
28638.93877564026,-18.19811996673288,-50.59868313862253,10.82938009349489
29252.36885659674,-18.19016545821389,-50.21991047771286,9.652935108733548
29878.93826744147,-18.19228600711965,-49.97174779499779,3.265397354521706
30518.92844528567,-18.20888104062533,-49.92454707988307,1.258916466201602
31172.62685546631,-18.19162307942207,-49.57150135748402,0.3389094852790907
31840.32712066748,-18.19245572474889,-49.58688335305581,-1.044398282140541
32522.32915280724,-18.19203878963037,-49.20945547516682,-10.58919954144872
33218.93928774943,-18.19359924107697,-48.65298527179608,-11.04350922442057
33930.47042290118,-18.19376403295802,-49.08161585625452,-14.98461954298463
34657.24215775735,-18.1915900667681,-49.07385827923066,-24.23973635747324
35399.58093745563,-18.1988491981986,-48.46161506400031,-28.07391332579979
36157.8201994062,-18.19512945561718,-48.62151875239774,-31.18028384636755
36932.30052306253,-18.19441404790589,-48.65366582202365,-42.67832882317465
37723.36978289979,-18.20673357087645,-48.86354000904758,-52.26999868737909
38531.38330467035,-18.19822908386782,-48.40195957277604,-58.52255281351486
39356.70402500563,-18.20162778784478,-49.74118895803588,-62.08963447708986
40199.70265443721,-18.21832010802389,-53.31508977455181,-76.58775974627893
41060.75784390931,-18.20914653369762,-53.08921465153726,-81.54446654038911
41940.25635485791,-18.21473141178107,-53.46957743785364,-72.31782928454095
42838.59323293314,-18.23342469960273,-51.9683272378662,-57.37059553526039
43756.17198544241,-18.23363574039743,-54.20178761666411,-66.34401018243632
44693.40476259428,-18.23105542341005,-56.39290621376837,-51.83308741077744
45650.71254262483,-18.22976671329902,-58.72136606079711,-49.81397069786934
46628.5253208889,-18.2303088857498,-56.1653000479597,-31.77981977997318
47627.28230300184,-18.24689551733403,-56.72848252608517,-33.11682313654167
48647.43210211794,-18.2293508524213,-55.75109480445133,-30.15700703074662
49689.43294043497,-18.22880811321276,-53.86009089205774,-35.92482972346256
50753.75285501438,-18.23255055213437,-54.36746639716016,-40.84511334564966
51840.86990801002,-18.22863153314486,-53.18555105457035,-39.00270949927862
52951.27240140039,-18.22950457341267,-52.58749201087403,-35.91810048633821
54085.4590963197,-18.22977147316144,-53.86263438111314,-42.08075005068869
55243.93943708728,-18.23061386753412,-52.42973517572949,-40.95501708035208
56427.23378003521,-18.24370036286298,-52.33981135895031,-43.33537354483999
57635.87362723792,-18.23034723509798,-52.1866228345707,-42.17847045337543
58870.40186524752,-18.23746112376269,-50.86878677774404,-47.72506758686377
60131.37300894284,-18.23703126135699,-51.42072943399291,-50.34285354228658
61419.35345060204,-18.23758137097689,-50.50126614405892,-56.73930648339199
62734.92171430973,-18.24432587281694,-50.28087243161469,-62.337745779145
64078.66871581318,-18.24113308802513,-49.67225690766475,-60.36799542013712
65451.19802794535,-18.24278120334315,-50.22053680702066,-67.30139690683006
66853.12615173226,-18.25031773356856,-50.29771771796839,-71.15023699155475
68285.08279330778,-18.24665111080295,-50.21642880142522,-76.91212615408691
69747.7111467595,-18.24716946931306,-50.02060102366957,-78.71665595700868
71241.66818303343,-18.26751091476802,-48.85656081768872,-80.01991715674814
72767.62494502655,-18.25621725349644,-49.72840409857341,-81.52988586981466
74326.26684899985,-18.25382774787245,-50.1472775782606,-88.3104541172996
75918.29399244821,-18.25828359193064,-49.0681599189469,-94.74157734601738
77544.42146856396,-18.25920631946387,-49.56096211905993,-98.44274406979136
79205.37968743649,-18.27330432923851,-48.99333380771959,-108.8413061785234
80901.91470413134,-18.26481586156604,-49.64840869153124,-110.6932455717889
82634.78855379723,-18.26562186604523,-48.91005274707911,-117.9600641755943
84404.77959395046,-18.26805654408214,-49.63224861860768,-118.0986070768433
86212.6828540905,-18.27057945554302,-49.3779419535346,-127.6986969191651
88059.31039280516,-18.27695049900845,-50.03530602887777,-127.5908415720942
89945.49166252385,-18.27562743588211,-50.71652280635354,-140.9664083130806
91872.07388208374,-18.28661238381179,-50.6456651615846,-143.0394521529847
93839.92241727677,-18.27784341075069,-50.12956753207507,-148.0015605014518
95849.921169547,-18.28845260691821,-50.1188645096391,-146.2869725661357
97902.97297301404,-18.28263803674207,-52.40850989521148,-159.8228064703894
100000.0000000001,-18.28779542183701,-51.46236129288786,-130.5693626877603
102141.9441752439,-18.28256588692268,-51.4894659768936,-99.53107284609528
104329.7675989865,-18.28000464277314,-52.54463186629054,-95.74702727537669
106564.4529791185,-18.29125032581911,-52.65488563253437,-30.28898791075158
108847.0040725852,-18.28248322917612,-52.59166045511373,-97.09543033675399
111178.4461362454,-18.28337355514966,-52.36104875338768,130.9442115221987
113559.8263873875,-18.28633679445195,-52.34977179413203,32.46076386602241
115992.2144741091,-18.28279001440072,-54.44926863219762,57.86066957673368
118476.7029557737,-18.28452939125483,-54.4474525730473,151.2847863454396
121014.407793756,-18.27856397944841,-54.71731987115441,119.5660603715412
123606.4688527002,-18.27737117558066,-55.03015862860618,139.6535801777813
126254.0504125152,-18.27734760058945,-54.33765613399072,144.1932468908065
