#Digilent WaveForms Network Analyzer - Bode
#Device Name: Discovery2
#Serial Number: SN:210321B213B5
#Date Time: 2024-02-15 03:33:22.670
#Start: 500 Hz
#Stop: 2e+07 Hz
#Steps: 501
#Wavegen: Wavegen C1
#Amplification: 1 X
#Settle: 10 ms
#MinPeriods: 16 
#Channel: Channel 1
#Range: 5.51697 V
#Offset: -0.000289588 V
#Relative: no
#Channel: Channel 2
#Range: 5.57616 V
#Offset: -0.000284749 V
#Relative: yes

Frequency (Hz),Channel 1 Magnitude (dB),Channel 2 Magnitude (dB),Channel 2 Phase (deg)
500.0000000000009,-0.6045275549835912,-42.17462605342091,-6.501653513092852
510.7097208762208,-0.5842248117699891,-41.7323602623976,-8.691781650499621
521.6488379949326,-0.5899156668998192,-42.26154140889406,-0.2777579423841942
532.822264895593,-0.5978052529993169,-42.05828782964041,-2.165818950481261
544.2350203629271,-0.5973453550004235,-42.46614512435087,1.445350021197567
555.8922306812275,-0.6208088705677344,-42.51816940056068,2.91374941640295
567.7991319369378,-0.6112222009162336,-40.91002513451975,-1.299791763149851
579.9610723705468,-0.6022062712490539,-41.48896548315938,1.788246303060919
592.383514778869,-0.6097613435972644,-41.68545532121188,-11.12338272996863
605.0720389687805,-0.6115238901865928,-41.69838124007086,-0.07429160745186465
618.0323442635009,-0.6208618078639264,-41.30650081208987,-4.867882345972132
631.2702520625768,-0.611239839209295,-42.23081335220677,-8.758612181617638
644.791708456679,-0.6158292992789292,-42.06456588142665,-9.701698406182555
658.6027868984215,-0.61708851519974,-42.74072246006391,-7.483870858877514
672.7096909303867,-0.6338567099912691,-42.24119045023354,-0.6398483401524715
687.1187569715719,-0.6038527655676236,-41.74197286139439,-7.670803842432884
701.8364571635318,-0.6166001225369606,-41.80283680744122,-1.881347780648617
716.8694022774847,-0.6162295379535452,-40.83928470457324,-7.63385742983302
732.2243446836735,-0.6331385141040646,-41.94016585853674,-12.71611388665653
747.9081813843421,-0.6222311086751986,-41.44061074622663,-0.7476204598871512
763.9279571116773,-0.6490140480948142,-42.23540096166672,-9.458223625439734
780.290867492091,-0.6207929962359581,-42.03278963588367,-10.79319441166299
797.004262278297,-0.6183190050823649,-41.76662469806618,-9.192892827722767
814.0756486506131,-0.6470997190759349,-41.94295292613366,-1.595385549874243
831.5126945889645,-0.6292809456697291,-41.56657736739734,-5.309197144053499
849.3232323171252,-0.6204742092724215,-41.6488525946661,-15.04311106585266
867.5152618207356,-0.6201922808913746,-42.32740605735611,-4.535362431196809
886.0969544406555,-0.6274622659470794,-41.92067548774787,-3.836875248113433
905.0766565433113,-0.6253609089479667,-42.04987265965805,-8.132666404558773
924.4628932696336,-0.6381760574233143,-41.47724206389002,-15.03304017257361
944.2643723643124,-0.6436553461151764,-41.68683588764847,-8.07327609975315
964.4899880870739,-0.6613897630110399,-41.81726447704389,-1.631655411753098
985.1488252077163,-0.6382236193234088,-42.42905222387208,-3.571256079882056
1006.250163086735,-0.6368663605147629,-41.12160512026661,-12.00781181257312
1027.803479843355,-0.6442494716814282,-41.72186901175681,-3.875758058044373
1049.818456612814,-0.6376307313708078,-41.99323304384578,-5.584014721191653
1072.304981894866,-0.6356076858738245,-41.47528760995004,-10.01058587453687
1095.273155995412,-0.6418455291780647,-41.83702477741975,-18.61061810255043
1118.733295563266,-0.625520061810878,-41.19048793872143,-6.846792505920197
1142.695938224099,-0.6410315649773421,-42.30930771560836,-14.29794872458343
1167.171847313637,-0.6644192320381187,-42.1564928975282,-10.05662001705867
1192.172016712258,-0.6481985629764544,-41.86632581035671,-19.01670703588316
1217.707675783115,-0.6519774784228272,-42.49010974376046,-7.538233032984576
1243.790294416048,-0.6658417870966979,-41.05977953765102,-15.94189083522708
1270.431588179542,-0.6453464915296871,-41.632126338018,-2.697166406562881
1297.643523583014,-0.639194711614261,-41.95396963898876,-6.431514892140394
1325.438323451828,-0.6602921788775346,-42.75333834259607,-10.54112945242556
1353.828472417455,-0.64761859453977,-41.73613880696798,-10.08671061793174
1382.826722525193,-0.6494802588809923,-41.96973393285427,-8.157137761067423
1412.446098962038,-0.6380820411498566,-41.95048170539196,-14.91932841556098
1442.699905907216,-0.6620971693543229,-42.12750710101304,-10.8222259525918
1473.601732508043,-0.6542933965852424,-42.03415205135699,-16.15604102954841
1505.165458983793,-0.6519635463321817,-41.71543911927868,-5.527680331044181
1537.405262860281,-0.6791512274537648,-41.97370124471614,-13.21216586050162
1570.335625338007,-0.6407595121095554,-42.2819480838218,-21.08931049135156
1603.971337796716,-0.6518040683390978,-41.54997272102087,-6.173612519551609
1638.327508439235,-0.6539359061088191,-40.76926917548298,-11.24435257217466
1673.419569077666,-0.6184195778499344,-41.52078772579429,-12.71623743773299
1709.263282064918,-0.6400877596724129,-41.05908713068526,-12.3518407147005
1745.874747374691,-0.6184643943356519,-42.51820681129736,-7.440578645047213
1783.270409833135,-0.6385364345510725,-41.42509790467219,-7.034825752904086
1821.467066505405,-0.654807565573813,-42.03670195515709,-13.02088444686243
1860.481874240405,-0.6244879506907882,-42.40015932948354,-19.27159136586752
1900.332357377163,-0.6324892920676816,-41.03518459617127,7.250610229804742
1941.03641561628,-0.6469235651520771,-42.43884081829206,-9.501767016149381
1982.612332059933,-0.6413090883624628,-41.92858115853469,-18.56033458865819
2025.078781424159,-0.6467307416087253,-43.19154705617753,-9.64237010569614
2068.454838426975,-0.6369826769816445,-42.89512304962346,-18.75090851014023
2112.759986356212,-0.6611667930280638,-43.26485962175926,-1.853136399956578
2158.014125820852,-0.6518030846901453,-41.96318108227348,-8.798061576767646
2204.237583689811,-0.6172650434238508,-43.017181316925,-4.144581298367633
2251.451122222194,-0.6499929107335649,-41.94877470348642,-10.82963299352846
2299.675948393094,-0.6541754809449424,-42.22028272071364,-23.17296858298953
2348.933723419184,-0.6567850318124302,-42.88295992118518,-16.78567808216483
2399.246572488303,-0.6351574076441058,-45.26395249118062,-25.16265609024335
2450.637094697454,-0.6556969381521491,-43.82965010871187,-12.9081337570682
2503.128373203692,-0.6440586426454786,-43.2154553928919,-25.66383648186234
2556.743985592407,-0.6315168045194117,-42.89328126550016,-18.9243336012209
2611.508014467701,-0.6347772804324967,-43.19967326688133,-19.72869335658794
2667.445058269619,-0.6523133171775568,-44.24545971089253,-18.51941333700213
2724.580242323056,-0.6433663293420382,-42.89956974958336,-12.2094778002013
2782.939230123342,-0.6270352935104007,-43.18102969158424,-3.542144324663369
2842.548234863546,-0.632236920733335,-44.28533113352768,-9.768593297131826
2903.434031208703,-0.641101877888046,-43.19646613023012,-8.208543200064954
2965.623967322229,-0.6616619910983554,-43.78955029857855,-8.974984335346983
3029.145977149923,-0.6306054117717395,-45.09835252252421,-12.81652151394804
3094.028592967117,-0.6532003422841006,-43.48133176619952,-31.38588271391806
3160.300958194555,-0.6323161508056063,-45.38276629034961,-5.727728680346728
3227.992840488783,-0.6351392521288225,-45.18999908452216,10.6714753331379
3297.134645112921,-0.6401667006220529,-41.99580424782383,-13.36462510008726
3367.757428593864,-0.638483012265218,-45.79069435808974,-4.907391804241581
3439.892912671974,-0.6539753837512819,-44.28081136812852,-4.663015153990132
3513.573498549581,-0.6359678463174256,-45.01063921610065,-2.964839335699066
3588.832281444676,-0.6367053369497182,-44.86547999247047,-2.846371561484468
3665.703065456351,-0.649848782386801,-44.88060313357452,3.538583980596282
3744.220378748634,-0.6386881129124061,-44.6609382842155,-4.256275506785803
3824.419489059534,-0.6692035128483164,-44.0297322783234,1.236340686409774
3906.336419542335,-0.6543447109093561,-43.35280965050497,-19.99489887864403
3990.007964946156,-0.6406209676122138,-45.0429977854678,-16.1337818968186
4075.471708143087,-0.6543129353545099,-43.21708137553589,-9.042138468221101
4162.766037009369,-0.661392007144782,-43.79880332200383,1.076661626997986
4251.930161668121,-0.6386038133183543,-44.5113591053067,7.10200075174364
4343.004132101412,-0.6704296462250687,-44.29970340191214,0.2195904858819205
4436.028856139559,-0.6317774808166309,-45.50533048261796,5.487424932626169
4531.046117835777,-0.6463706552068007,-44.78442618349513,9.221719149019425
4628.098596234379,-0.6066233540396738,-44.96585343192614,4.312329395789329
4727.229884540964,-0.649764604872574,-43.9091170817354,4.594902931671783
4828.484509703277,-0.6363414696518348,-44.02467330235275,17.78705591287088
4931.907952411419,-0.6235495290288948,-43.5303871703061,6.429196536798886
5037.546667526489,-0.6458601965388849,-42.61587448476745,11.72973666344582
5145.448104946764,-0.6545718230915705,-44.31623859376201,12.33215471804342
5255.660730920867,-0.6740653561866068,-43.17334718120684,-1.088280449958949
5368.234049817411,-0.657699500560382,-43.23849067008478,-0.2573545274288428
5483.218626360933,-0.6434183982007349,-43.63379294477092,15.95154812027606
5600.666108344157,-0.6342610177602502,-43.35244482336825,10.16982073170493
5720.629249826698,-0.6659808518520465,-42.5856135327427,5.849663045375335
5843.161934830659,-0.6477041657628911,-42.88464409276258,7.653600237207823
5968.31920154383,-0.6638252184714226,-44.01619091863346,1.877878244756648
6096.157267041259,-0.6464701419143624,-42.74942957030057,-2.512398471041091
6226.733552536361,-0.6954248575619095,-44.21723783331156,0.2492456664572188
6360.106709172869,-0.6225254303465324,-42.92214991720466,-1.465325396790319
6496.336644369291,-0.6727482311599088,-43.37098562575947,-12.42293661011243
6635.484548727598,-0.6846388335171206,-43.07428971041392,10.82356399472854
6777.612923518275,-0.6628996906584278,-43.41938992089317,2.429483056687625
6922.78560875415,-0.6500794833978968,-43.11499515139754,20.15403473427033
7071.067811865488,-0.6606178821360225,-43.68745011172951,16.78952683977394
7222.526136989285,-0.6345075534856283,-43.5847432908706,2.078265327352365
7377.228614885992,-0.6473116794361605,-42.6720113294466,17.5927280934855
7535.244733496967,-0.6345689042659832,-43.72766405483968,-2.018285214137001
7696.645469156483,-0.680332670580326,-45.02836413565731,11.04634315248005
7861.503318472251,-0.6510750394173741,-42.7294201543185,8.733882792411142
8029.89233088887,-0.6639992828203507,-43.71905347586009,20.21176024846696
8201.888141948706,-0.6753950201951076,-41.37190774501527,10.95806642369394
8377.568007265194,-0.6920834105637698,-41.80934023781325,-1.170370200497679
8557.010837223905,-0.6556633245183484,-41.97872770026677,15.43692568418322
8740.297232426808,-0.6723578337874753,-42.14659036744935,5.950842889702715
8927.509519895782,-0.6558258866435452,-43.29324767814748,9.002013566345081
9118.731790051532,-0.6788216440636341,-42.85279874535095,-1.899836434806593
9314.049934484652,-0.6744065314132861,-40.48774246359099,4.965394672957304
9513.551684535661,-0.6589281849928103,-41.6545289699804,10.471529981251
9717.326650701387,-0.6521748373824947,-42.48778196288377,4.027126502024716
9925.466362885505,-0.65227325685291,-42.31599786238758,-2.053186011903302
10138.06431151113,-0.6853741647237809,-43.66007848144875,3.050557327545294
10355.21598951402,-0.6526327708935518,-42.28697036019199,0.2951889272490646
10577.01893523534,-0.645106224064468,-41.79155527648858,12.72828178185043
10803.57277623305,-0.6492519608272291,-40.7722353370163,11.55627079489485
11034.97927403182,-0.6648267038303697,-42.37787846823171,8.133698810200281
11271.34236983131,-0.6706983354355266,-42.59019847804904,10.26126563390576
11512.76823119371,-0.6341733074597838,-42.40426291116815,1.088441676975477
11759.3652997311,-0.659030020842683,-42.35540783820689,-16.78498276707926
12011.24433981434,-0.6453328965044003,-41.33703287711083,4.67938652881491
12268.5184883253,-0.6640728944404544,-40.90955396403679,-3.748245120942882
12531.3033054747,-0.6690387126831242,-40.76272377064312,-2.608244843766383
12799.71682670847,-0.65825888256937,-43.92977791350703,1.640896363993976
13073.87961572586,-0.6600062703697623,-43.3451238232455,2.508306672564992
13353.91481863329,-0.6600166221460766,-42.5125597017044,5.595564468769729
13639.94821925805,-0.6478841683034766,-41.65355236347335,3.533235715672802
13932.10829564673,-0.6513972728032763,-42.77505174860261,11.11915761250443
14230.526277774,-0.6624740750678138,-41.05589395819698,6.9493579121128
14535.33620648734,-0.654773482086075,-41.37926456171625,-19.90242254046979
14846.67499371431,-0.640413198950357,-43.83249775004759,6.131151929739667
15164.68248395956,-0.6403810747827764,-41.06587482160683,4.048130105934317
15489.50151711896,-0.667755045087946,-43.424188265497,-3.446046652039612
15821.27799263921,-0.6586799857285306,-43.2236609817587,7.28285296077128
16160.16093505169,-0.6358469717450685,-40.97425015208154,-0.2921972586562817
16506.30256091006,-0.6482656208432002,-41.20757924366856,-8.333999525890004
16859.85834716162,-0.6562498529235326,-41.16010958630963,27.05133865094188
17220.98710098302,-0.6528282786611126,-42.56558299950055,10.23568555077573
17589.85103111202,-0.6422241202292768,-39.94238256289297,-0.576419141342108
17966.615820707,-0.6236431712860986,-45.90681802450216,21.71321621160943
18351.45070176709,-0.638181913157203,-41.07826821175793,13.27156686127331
18744.52853114634,-0.6696874724021564,-42.55255710711261,8.755846223369675
19146.02586819613,-0.6654034371473015,-42.77686001890339,7.196085661270208
19556.12305407065,-0.6676312752346327,-41.49883421967865,-6.089063741582267
19975.00429273085,-0.6628997085034489,-42.80120843868823,2.136209328224937
20402.85773368371,-0.6495214346318248,-41.1251720291418,-2.14005444946952
20839.87555649364,-0.6397820895185879,-41.88916377761559,11.64896229961676
21286.25405710405,-0.6421205835188082,-41.85537105872795,-1.938068106097323
21742.1937360078,-0.629870092612599,-42.37290152308087,-6.783860581131177
22207.89938830645,-0.6550766019211614,-40.51376758247535,17.0625970611798
22683.58019569833,-0.6353728784644108,-42.84846683668335,-1.3239096765427
23169.44982043686,-0.6534763078751944,-41.05768881916541,6.309721634312088
23665.72650130175,-0.6484888297580231,-41.15868344590296,-2.815877071533314
24172.63315162553,-0.6244929047069749,-41.50976768150747,23.37746708670985
24690.39745941987,-0.6465948931709864,-40.37711114963759,2.266475780497528
25219.25198964647,-0.6412515019655203,-39.35986146035247,-21.95660835199566
25759.43428867878,-0.6064565600065618,-40.57537563621668,2.181461730038184
26311.18699100093,-0.6610540587227642,-41.80794282689925,10.685275523126
26874.75792819219,-0.6425508897031882,-39.66377954403975,11.81930236156665
27450.400240246,-0.6406284813257974,-39.15606925903125,-1.077015942734323
28038.37248927307,-0.6389835556687988,-40.21886091742059,0.2278431405808817
28638.93877564026,-0.6613554318769348,-42.24944778996114,-2.26595510472167
29252.36885659674,-0.6578561283929417,-40.49637264676616,26.35520489198766
29878.93826744147,-0.6401286203400531,-43.03705306283543,13.73776463169245
30518.92844528567,-0.6564813406747396,-39.6038228977315,11.66128290899552
31172.62685546631,-0.6561116997267925,-40.70538378415339,13.80402246268219
31840.32712066748,-0.6418549882359263,-41.37542552552597,17.55458186865062
32522.32915280724,-0.6405265296135388,-41.90939273189534,-2.628350446652232
33218.93928774943,-0.635608292403595,-37.36366411365536,9.209309663190048
33930.47042290118,-0.6544598025288937,-41.45684658816953,-10.09856161945921
34657.24215775735,-0.5977340243673602,-38.15265489218151,-17.26867985573572
35399.58093745563,-0.645714778525541,-38.16668424511255,-14.70498203899713
36157.8201994062,-0.5797220563352158,-40.81060258566944,-3.787859549499983
36932.30052306253,-0.6455692683844705,-40.15682111415777,-1.781646852949974
37723.36978289979,-0.6797636319532845,-39.49935532186692,-0.7263754506082464
38531.38330467035,-0.6325634181857402,-39.5262051499538,11.18226339537895
39356.70402500563,-0.637469011611647,-38.97331262809335,-2.622959691116117
40199.70265443721,-0.7362586869644205,-42.26483418362805,-13.27090800085301
41060.75784390931,-0.6459935203258139,-38.52261168953873,-7.069921375149166
41940.25635485791,-0.6474502211001086,-41.40490780449193,11.79941411679078
42838.59323293314,-0.6806643624515989,-38.95426855938803,-26.12175378927935
43756.17198544241,-0.7047310888996348,-38.0068866002644,15.62283502961832
44693.40476259428,-0.6465772101637492,-39.26581705830023,23.11906780723037
45650.71254262483,-0.6774085333428527,-40.73289981360976,-5.849549172234871
46628.5253208889,-0.6720517239528871,-37.8580702919318,-9.546966401262612
47627.28230300184,-0.6786919879964457,-42.46198228476024,10.92971311890494
48647.43210211794,-0.6968572160139713,-43.60151975240115,-19.32513502829937
49689.43294043497,-0.7128931783575003,-41.18349817926934,-6.005046593681801
50753.75285501438,-0.7007946630112566,-39.75001271585518,21.82795468668512
51840.86990801002,-0.6758987979764551,-40.04925845622968,31.43990271476492
52951.27240140039,-0.7026578956418992,-39.97995624673275,19.6950606965252
54085.4590963197,-0.7306373262573336,-40.43360334459653,-16.11175139966563
55243.93943708728,-0.6900671867791642,-38.58468981342138,21.02260093721209
56427.23378003521,-0.725087570740688,-41.69159202720336,11.47588929014754
57635.87362723792,-0.6775300001801511,-42.09122035916099,18.21402217994713
58870.40186524752,-0.713521217682105,-40.75546235396679,-11.07273109805759
60131.37300894284,-0.6762387436069152,-39.45291218526352,-24.94746599902998
61419.35345060204,-0.7195153893127043,-40.96898417692985,-36.89371589844993
62734.92171430973,-0.7562130275146817,-40.20681195927384,21.83891308000189
64078.66871581318,-0.6845197013788098,-40.98813435779771,-36.78450060311834
65451.19802794535,-0.7563805301327178,-37.60002893878473,-22.45226776923995
66853.12615173226,-0.7243437810246683,-38.79545499758868,-5.856623701709857
68285.08279330778,-0.7424891257879687,-41.29508670375387,-28.3738947147908
69747.7111467595,-0.7431294735852916,-38.804554368791,-8.1874531774455
71241.66818303343,-0.7919529831893264,-40.63202915013596,-29.41935213860165
72767.62494502655,-0.7697727145307058,-37.90452034354567,5.716620727616993
74326.26684899985,-0.7776296412334714,-38.4181702993595,-23.33175481544178
75918.29399244821,-0.8076837835681784,-39.21385275350619,2.847922041263074
77544.42146856396,-0.788770689483127,-40.82209642108165,15.53533129548668
79205.37968743649,-0.8326384556056134,-38.52662667354726,-5.382989145971504
80901.91470413134,-0.8070024258320505,-39.96232641184701,5.994168408959209
82634.78855379723,-0.783604864043284,-40.63842581117374,-27.88327551356077
84404.77959395046,-0.8112713931101285,-38.34245766996862,-9.115989887667247
86212.6828540905,-0.8401324277007698,-40.31244646064983,-7.739387393025983
88059.31039280516,-0.8317819460868824,-41.8210152906464,-41.96828029956309
89945.49166252385,-0.8238374524463192,-40.63799206623855,4.452530235276012
91872.07388208374,-0.8035909608567509,-42.13542752917682,32.53322235696184
93839.92241727677,-0.8083050539024189,-41.50976729051999,-10.07631428308216
95849.921169547,-0.889793873064555,-41.78709583589237,10.30364834520896
97902.97297301404,-0.9830013198196695,-42.27902214140833,-32.56617146428399
100000.0000000001,-0.9077619120326357,-39.64474278323576,34.78728738925582
102141.9441752439,-0.9301768118916933,-42.81649311491574,-11.35568917970783
104329.7675989865,-0.9194521170244984,-38.72507396452,-38.85288072047598
106564.4529791185,-0.9216668880977359,-41.03112255538292,18.54953137365221
108847.0040725852,-0.9285315560523089,-38.85881006979473,7.152168929607583
111178.4461362454,-0.9774575815771276,-40.52221089073473,62.71764185485117
113559.8263873875,-0.9948174645891951,-39.7025637388849,-6.004669267707498
115992.2144741091,-0.9516177146774418,-38.78308436543292,22.41598240265355
118476.7029557737,-1.02383075917932,-39.81002484952168,-26.16681077104495
