#Digilent WaveForms Network Analyzer - Bode
#Device Name: Discovery2
#Serial Number: SN:210321B213B5
#Date Time: 2024-02-15 03:09:10.792
#Start: 500 Hz
#Stop: 2e+07 Hz
#Steps: 501
#Wavegen: Wavegen C1
#Amplification: 1 X
#Settle: 10 ms
#MinPeriods: 16 
#Channel: Channel 1
#Range: 5.51697 V
#Offset: -0.000289588 V
#Relative: no
#Channel: Channel 2
#Range: 5.57616 V
#Offset: -0.000284749 V
#Relative: yes

Frequency (Hz),Channel 1 Magnitude (dB),Channel 2 Magnitude (dB),Channel 2 Phase (deg)
500.0000000000009,-1.166270498444808,-61.04533425880558,-115.8930601241099
510.7097208762208,-1.20530312693018,-61.47946758594722,-108.2455182578474
521.6488379949326,-1.245859105898973,-61.22489371649404,-111.8859488625786
532.822264895593,-1.287016809217845,-60.66460071979251,-105.8827805755387
544.2350203629271,-1.330014011621384,-61.41350538299015,-107.8210970038375
555.8922306812275,-1.375552212695383,-60.48293428617229,-108.387518613661
567.7991319369378,-1.418926568291915,-61.12081516566585,-103.029689581218
579.9610723705468,-1.467074021421315,-61.26613293299893,-109.3419121631454
592.383514778869,-1.514784611420771,-61.48022435295036,-104.9785139255978
605.0720389687805,-1.56486009815278,-62.10257279474565,-108.3095560383471
618.0323442635009,-1.614988674935691,-61.77662892887717,-103.5564394742048
631.2702520625768,-1.668160306654833,-62.2303027456628,-110.3387047543451
644.791708456679,-1.723071610669467,-60.94067157136517,-103.9165928223503
658.6027868984215,-1.779220017542535,-61.63070743770425,-108.7309120017847
672.7096909303867,-1.836060595091687,-61.73872459179898,-105.7044848842039
687.1187569715719,-1.896008609726475,-60.85723939808751,-100.528850698939
701.8364571635318,-1.960026431728773,-60.99532801481768,-98.8699917584056
716.8694022774847,-2.026692479142533,-61.22812440250065,-102.5232798794832
732.2243446836735,-2.095920790474464,-60.79948981798047,-100.7324821654261
747.9081813843421,-2.167942089057067,-59.97105955766509,-106.8819283444502
763.9279571116773,-2.242904803045823,-61.49645985008891,-100.7165510835746
780.290867492091,-2.31752418151602,-60.58921046539004,-102.9421508963289
797.004262278297,-2.395555858119574,-61.41517898409149,-105.0133248350736
814.0756486506131,-2.477821788071412,-60.06246257892167,-102.1944700359875
831.5126945889645,-2.559387770301776,-60.00648779072567,-106.5218512864581
849.3232323171252,-2.643644355846763,-59.46446666102455,-100.9332497037002
867.5152618207356,-2.728845115401724,-59.61359557629478,-106.7373448331195
886.0969544406555,-2.816753760608976,-59.00922783661365,-104.2428811499131
905.0766565433113,-2.905107106037072,-59.44485857018186,-98.82041129000183
924.4628932696336,-2.994770587154556,-58.96738143217465,-102.9882594946403
944.2643723643124,-3.085467531050372,-59.4898434958226,-99.47976712614121
964.4899880870739,-3.177185134325044,-59.18765396914829,-96.30040653795906
985.1488252077163,-3.271737145592762,-58.54901234937486,-102.5424127033602
1006.250163086735,-3.36502307734062,-59.07284569643876,-96.52939231382592
1027.803479843355,-3.461593391044113,-58.62230613832657,-97.43777508548911
1049.818456612814,-3.556434194528731,-59.25439302368621,-96.79410432450096
1072.304981894866,-3.653711362007057,-58.87163738937667,-98.45047657381821
1095.273155995412,-3.750515609529851,-58.74697993024383,-96.7686443804719
1118.733295563266,-3.848335395749562,-58.91286609875812,-99.34047769805368
1142.695938224099,-3.945943034371018,-58.3948476829891,-97.90742909585403
1167.171847313637,-4.045393005328715,-57.26648829121592,-98.43843835366621
1192.172016712258,-4.143195521328074,-57.50323176985464,-98.08247355652043
1217.707675783115,-4.241874696603978,-58.17992678719008,-91.80512188505915
1243.790294416048,-4.340482349039363,-57.46004605269901,-98.47696069423122
1270.431588179542,-4.439474884891912,-57.55251724506855,-99.1553537802496
1297.643523583014,-4.537324059129741,-56.13223179302663,-96.78118316419878
1325.438323451828,-4.635691704279168,-57.22162311475302,-103.4461993930283
1353.828472417455,-4.732841647054435,-56.98678252090676,-98.27093617570441
1382.826722525193,-4.831668906347076,-56.71886881879855,-97.28488716474467
1412.446098962038,-4.927452366600307,-55.8731736409431,-96.69581535621282
1442.699905907216,-5.025607020429859,-55.91857552252752,-97.17274908366809
1473.601732508043,-5.119599093939944,-55.72832371536082,-98.02362777993987
1505.165458983793,-5.21403354906031,-55.16490154684845,-95.72443761636704
1537.405262860281,-5.310648926162242,-55.6891444930939,-101.1178591012528
1570.335625338007,-5.403320159971752,-55.71754568469856,-99.01805791538816
1603.971337796716,-5.496751430103711,-54.92525426914672,-100.1345589216157
1638.327508439235,-5.589831604937384,-55.61682438115951,-98.05597266992217
1673.419569077666,-5.681302231612273,-55.24967340460557,-105.5257938789979
1709.263282064918,-5.771294485617085,-54.89101843798267,-101.872255183668
1745.874747374691,-5.86209432647653,-54.99457830540436,-105.4607534082207
1783.270409833135,-5.950134300216421,-54.55761143682831,-104.4458371622694
1821.467066505405,-6.037842427244233,-54.69275846943206,-103.6750816851882
1860.481874240405,-6.123808642234766,-54.3653858681483,-108.6202082741772
1900.332357377163,-6.209906751266409,-54.17122562822092,-108.7949203462296
1941.03641561628,-6.295951387324332,-53.73981994744214,-112.8277540331929
1982.612332059933,-6.377428616950395,-53.6730466462777,-109.6439124554365
2025.078781424159,-6.460914626594796,-53.21820092445617,-115.7903212635722
2068.454838426975,-6.54328172703186,-53.09708272397209,-113.996435146452
2112.759986356212,-6.622452567243183,-53.17995181356338,-120.6072768536176
2158.014125820852,-6.700960905614297,-51.99144253240964,-118.1269131115557
2204.237583689811,-6.779612995411048,-52.05155899666609,-120.9134391023698
2251.451122222194,-6.856271814654419,-52.31401049520115,-124.3579932309683
2299.675948393094,-6.931451894902443,-51.89378580382949,-123.5377155516187
2348.933723419184,-7.007282049508488,-52.05268308905772,-124.6526088893983
2399.246572488303,-7.079490307103807,-51.36183747602761,-124.5215985886743
2450.637094697454,-7.153644091915296,-51.1235310711379,-126.6250557468428
2503.128373203692,-7.223247868311464,-51.61766919237058,-129.5846593424842
2556.743985592407,-7.292913953295325,-51.01082689397372,-132.066981219794
2611.508014467701,-7.360878408774813,-50.85417023590122,-134.6283168476111
2667.445058269619,-7.428807178083376,-50.74259428953348,-136.024140674843
2724.580242323056,-7.498054926652356,-50.42033884518131,-133.2625559794318
2782.939230123342,-7.56032644660289,-49.6677685481895,-139.6532540476447
2842.548234863546,-7.624385025076348,-50.22594771937204,-140.0738752471545
2903.434031208703,-7.688055872174485,-49.778219837103,-143.445042834803
2965.623967322229,-7.751019481633357,-49.64777798468645,-145.0951230392994
3029.145977149923,-7.8094326527828,-49.59096778362147,-147.0566011144167
3094.028592967117,-7.872192299781421,-49.65679388656179,-147.2816033890156
3160.300958194555,-7.930959394348513,-49.40538471072869,-152.3453192321904
3227.992840488783,-7.98778052234315,-49.05560750346042,-154.3331266062558
3297.134645112921,-8.046928834065538,-49.30187630381798,-156.8082449912092
3367.757428593864,-8.104369223933423,-49.01583967556498,-156.9106463943772
3439.892912671974,-8.156857467319737,-48.93496101877783,-159.037159949928
3513.573498549581,-8.214290951845323,-48.95264446767537,-161.404275484619
3588.832281444676,-8.267511087113595,-48.4789101429553,-166.0670216903617
3665.703065456351,-8.320115177462982,-48.51719207196353,-168.3436571773677
3744.220378748634,-8.372292525867342,-48.18194039001561,-167.5490804121027
3824.419489059534,-8.426705710312287,-48.35682055015042,-172.0694866297713
3906.336419542335,-8.4776718278089,-48.60162455325278,-172.9157027768755
3990.007964946156,-8.529302813320687,-48.43557059955423,-67.89837003693847
4075.471708143087,-8.581313878988398,-48.516539115147,-0.1273422135719756
4162.766037009369,-8.626994897346892,-48.12465070096395,-69.14808726303707
4251.930161668121,-8.678144234453603,-48.50962356140089,139.3741483064697
4343.004132101412,-8.727585216825743,-48.70303594516218,138.5029635965164
4436.028856139559,-8.779331249784009,-48.04487185043101,173.0870651424151
4531.046117835777,-8.827977072758049,-48.52793495638223,171.6776646797629
4628.098596234379,-8.871333522569694,-47.97021790886761,167.541771281967
4727.229884540964,-8.920430535621334,-48.31919589648354,163.9742352699127
4828.484509703277,-8.968484369310962,-48.52778660227618,160.6562562699436
4931.907952411419,-9.016583423705098,-48.30104288936136,159.4966545274221
5037.546667526489,-9.06212848914816,-48.56089199723439,158.3447541631231
5145.448104946764,-9.110117730082765,-48.75434861232593,155.6807174520004
5255.660730920867,-9.158523317324441,-49.01010406664839,154.9044657655543
5368.234049817411,-9.200904411982352,-48.65887825218331,151.8375106889985
5483.218626360933,-9.248361218666316,-48.04868770805594,146.5987611476711
5600.666108344157,-9.294526124737901,-48.16880275138417,146.2809414944264
5720.629249826698,-9.343124949347548,-48.83203345288278,142.8827413582401
5843.161934830659,-9.386219042592042,-48.80144585112784,142.049072009957
5968.31920154383,-9.431379240355204,-48.37429997504015,140.054068050612
6096.157267041259,-9.490188151091587,-48.62786847251644,136.4408377916786
6226.733552536361,-9.524749550175521,-49.17501539700378,136.8842550467853
6360.106709172869,-9.566481396774922,-49.41866688506637,132.5496713575311
6496.336644369291,-9.628529833479844,-49.06693419394166,131.8997394668832
6635.484548727598,-9.658648760459339,-49.0097943266491,128.2164840417099
6777.612923518275,-9.698967432250274,-49.1529836584587,125.863874348686
6922.78560875415,-9.755004190340218,-49.73953626961641,123.9200707035307
7071.067811865488,-9.790333162948835,-49.25056789590297,124.6067285437686
7222.526136989285,-9.844263801415147,-49.38741641282082,124.8097112988397
7377.228614885992,-9.882769551069513,-49.80263776326409,119.1492949472397
7535.244733496967,-9.929100518471008,-50.31531545182432,119.5436598384779
7696.645469156483,-9.976536567714529,-49.79918248843241,116.2365530759516
7861.503318472251,-10.01886217628942,-49.99647294860065,117.2147575821854
8029.89233088887,-10.06922470029854,-51.32556260054911,108.7871626270673
8201.888141948706,-10.10613000099852,-50.73579061597396,107.8644941281349
8377.568007265194,-10.16182614691988,-50.67372397602887,112.0024109766626
8557.010837223905,-10.19332016395774,-51.21619340766781,112.2745712246463
8740.297232426808,-10.2488402907157,-51.51369542944672,111.4712471211183
8927.509519895782,-10.28296192972159,-51.15260646590827,106.5408948702574
9118.731790051532,-10.33500053591148,-51.38104482560097,106.5280298412551
9314.049934484652,-10.36953080460516,-51.15629421906278,102.8810744392561
9513.551684535661,-10.41576275160349,-51.11036146053583,104.2612640026224
9717.326650701387,-10.45473630829912,-51.99956782318026,104.6384405793873
9925.466362885505,-10.50415861105067,-51.78325675620093,103.3746891535704
10138.06431151113,-10.55130451158335,-51.54266285432722,105.4547010652742
10355.21598951402,-10.58934293443586,-52.66374776368135,100.5637591049258
10577.01893523534,-10.64571360586516,-51.32329637572926,104.4814950038077
10803.57277623305,-10.67841661436876,-52.31066007121296,100.4607015222816
11034.97927403182,-10.72356937081513,-52.02332753986123,96.03786214016091
11271.34236983131,-10.77121177617175,-52.43224282711098,94.36936059743412
11512.76823119371,-10.80810408690548,-53.23764446555273,101.7933439801778
11759.3652997311,-10.85385527161858,-52.32936963252659,95.80366452931342
12011.24433981434,-10.89445507149432,-51.72078424909586,102.6014368566472
12268.5184883253,-10.93622638178714,-53.75345402804325,99.1146718901806
12531.3033054747,-10.98503265379883,-52.09694233626495,92.88801451727988
12799.71682670847,-11.01534594000426,-52.62622842161339,93.81843376519518
13073.87961572586,-11.05318572713638,-52.86873476584667,94.38825025013548
13353.91481863329,-11.09653038059804,-52.02617381763471,97.83591740507748
13639.94821925805,-11.13083548121183,-52.65503753042682,97.77109886977004
13932.10829564673,-11.16613368084502,-50.86399715741869,94.75366858495804
14230.526277774,-11.20635070900039,-51.32023662361937,86.93759762624053
14535.33620648734,-11.24339094503746,-51.83648580616057,95.09786831719528
14846.67499371431,-11.27793071474155,-50.90908038999405,87.62581059683319
15164.68248395956,-11.31366291211593,-53.22415298258707,89.31043521121326
15489.50151711896,-11.36201608748678,-51.60857544552915,82.72827824505644
15821.27799263921,-11.38329317543885,-52.67880129825123,91.20059661858205
16160.16093505169,-11.41747522941843,-51.47051011940913,84.51870845797546
16506.30256091006,-11.45405780987264,-51.81038197426903,87.96674065408263
16859.85834716162,-11.49729365404726,-50.80388754726697,87.69087233298163
17220.98710098302,-11.51644226784479,-49.87559333184773,85.9528530229784
17589.85103111202,-11.54732807294396,-50.21360877093451,88.05314591434481
17966.615820707,-11.57859522431031,-50.99391471984311,76.83273425444411
18351.45070176709,-11.61750102348629,-50.42749070972246,83.63282814468175
18744.52853114634,-11.63339065401919,-50.6765189140068,76.05001972656086
19146.02586819613,-11.65544255210177,-49.25081822456751,79.03226499367615
19556.12305407065,-11.67833279040579,-49.45660053049058,74.54675441333654
19975.00429273085,-11.69336978415816,-50.22242948590527,72.51244360540468
20402.85773368371,-11.70628310423699,-49.98498512374162,61.11783281539954
20839.87555649364,-11.7149621682879,-49.10012158734968,65.95344379927039
21286.25405710405,-11.73535283609219,-48.5068455576437,68.24235268807904
21742.1937360078,-11.73777220025201,-48.50530122901627,64.01566474383004
22207.89938830645,-11.7431334251244,-48.51489145352814,64.30465361264146
22683.58019569833,-11.74372437345728,-48.3272487086445,52.71511445199385
23169.44982043686,-11.74403223161256,-48.46732216619814,53.49235311192295
23665.72650130175,-11.74933573361092,-48.97750393901973,44.85254714939345
24172.63315162553,-11.73595373461591,-47.59767504346438,46.82189699555387
24690.39745941987,-11.71963288272126,-47.70124893623156,42.87378868597646
25219.25198964647,-11.71937246905413,-48.0200986281566,35.97485492324543
25759.43428867878,-11.69098307717065,-46.41343992513395,35.70017785523625
26311.18699100093,-11.67277578122069,-46.30763296996675,32.06263627969982
26874.75792819219,-11.66095956998092,-47.04279923362142,28.86042284089561
27450.400240246,-11.63496505590031,-47.3267211168601,24.50384968044788
28038.37248927307,-11.61469481967661,-46.75097763435115,24.69372470784429
28638.93877564026,-11.60073870680495,-46.53510099356036,19.28868060304099
29252.36885659674,-11.58096206892681,-46.77049301354856,23.41045772755809
29878.93826744147,-11.56576484431383,-45.63995880228161,17.71639564835685
30518.92844528567,-11.56469658209837,-45.801354723361,13.56579249436946
31172.62685546631,-11.54210712371639,-44.89970118873863,7.868064365173931
31840.32712066748,-11.53505020795613,-45.13267731868386,-4.154508205874369
32522.32915280724,-11.53583815666447,-44.98196023210365,-5.627345586033259
33218.93928774943,-11.54531913792981,-44.66177320117051,-10.15843215440633
33930.47042290118,-11.54955149244159,-44.25930224932581,-8.362004895803633
34657.24215775735,-11.55919580026141,-43.503990878643,-21.45498778111822
35399.58093745563,-11.57769697804911,-43.59990559090222,-30.05184635290053
36157.8201994062,-11.58478403663914,-43.04392608125014,-35.88139314924351
36932.30052306253,-11.61179143280495,-43.42249393049562,-46.8436381273707
37723.36978289979,-11.64223088768718,-42.83515552157528,-53.26399599625822
38531.38330467035,-11.65434098849462,-43.73393533274756,-61.54840381394958
39356.70402500563,-11.68927933325791,-42.18523205068911,-84.63236491878686
40199.70265443721,-11.73769177443162,-46.3019145952015,-94.79993072271584
41060.75784390931,-11.7807373308947,-48.31208899974899,-110.1687801860273
41940.25635485791,-11.79758887216562,-48.04662110319195,-64.2441023596795
42838.59323293314,-11.83833454044255,-48.97505259348431,-9.295577367012205
43756.17198544241,-11.92559109983528,-50.73197562800446,-34.42891888726029
44693.40476259428,-11.9189833583837,-50.59206785824146,-47.94593940109357
45650.71254262483,-11.96235820543385,-56.48764528703464,-62.99314858077032
46628.5253208889,-11.99264093739615,-54.199053394284,-34.21752621457979
47627.28230300184,-12.03405518150454,-52.48797049813761,-47.51806985140176
48647.43210211794,-12.04817721192839,-54.10320543841486,-47.21524015560965
49689.43294043497,-12.07395088960531,-51.95929808767421,-34.09503048256551
50753.75285501438,-12.10994844231988,-51.2156278967559,-30.07763913167571
51840.86990801002,-12.14024278570851,-48.21291535928594,-36.46577206366628
52951.27240140039,-12.16833760272056,-50.31039679256718,-48.62816116793662
54085.4590963197,-12.20019166528818,-48.16016675569179,-39.63378407507916
55243.93943708728,-12.22294869106851,-48.33382367177647,-48.08932531979563
56427.23378003521,-12.26843781495026,-47.15993353560633,-56.24735367194952
57635.87362723792,-12.27932602342679,-46.41015150069377,-55.49790934937717
58870.40186524752,-12.30434979154225,-45.72155738009548,-58.33146964233298
60131.37300894284,-12.33475554208518,-45.90779297385819,-66.70727198043153
61419.35345060204,-12.35723706311288,-45.61368797789713,-72.40786536844659
62734.92171430973,-12.38473539557462,-45.93275836602386,-74.71434264965987
64078.66871581318,-12.40462666496558,-44.32340258743527,-75.11403239949345
65451.19802794535,-12.41914197051611,-44.08623062873966,-82.10832462138762
66853.12615173226,-12.4534942580315,-44.56942237086297,-90.15812335997052
68285.08279330778,-12.46577334650475,-43.5160220675968,-90.81490444223695
69747.7111467595,-12.47606784265568,-44.22471548214081,-92.29511351530981
71241.66818303343,-12.51055825656896,-42.84627564308492,-99.29565566901941
72767.62494502655,-12.51893443586424,-43.05982678995179,-102.0681641702671
74326.26684899985,-12.51909442328904,-43.06974722702228,-110.6684373359827
75918.29399244821,-12.54387639867622,-41.73449623554547,-121.4431547145914
77544.42146856396,-12.54363973669493,-41.76114386233362,-117.7323514743411
79205.37968743649,-12.5638393310219,-42.15470220398939,-123.1615242886824
80901.91470413134,-12.56339343879581,-42.69271071718155,-128.714967856211
82634.78855379723,-12.56531095176772,-41.57793315593022,-139.6420246540983
84404.77959395046,-12.57410228416527,-41.72058463999554,-142.1317417341753
86212.6828540905,-12.57037692849937,-41.7543264794535,-147.6713418422615
88059.31039280516,-12.57587591564012,-41.3411356946384,-157.6642122494091
89945.49166252385,-12.57488265319783,-42.13567333943025,-159.2855737030354
91872.07388208374,-12.57018473842957,-41.9684388948354,-158.5451923245579
93839.92241727677,-12.56355105047516,-42.3934621542176,-167.5344838407651
95849.921169547,-12.55660469383754,-42.30544568497994,-135.0167820671881
97902.97297301404,-12.54595903264176,-42.99991931393863,0.5553296254102605
100000.0000000001,-12.53599501732596,-42.54714607770886,2.032467826213932
102141.9441752439,-12.52699846294072,-42.85158829553939,31.17667833340635
104329.7675989865,-12.51544517370308,-42.45518288362607,98.73060814157408
106564.4529791185,-12.50342445968579,-41.96518030399568,124.0843053658817
108847.0040725852,-12.47421675861807,-42.58947374654645,126.2632271875188
111178.4461362454,-12.45558980952798,-42.66385971139394,157.985761749304
113559.8263873875,-12.4460172690126,-42.0878480335553,149.941080117605
115992.2144741091,-12.41969059000503,-43.05326297800326,146.3115758019417
118476.7029557737,-12.39977335154399,-44.90432914285837,133.8422747066055
121014.407793756,-12.37026798421638,-42.92896005439526,138.8082905517709
123606.4688527002,-12.34882329201585,-43.27414310131503,142.6308611703766
126254.0504125152,-12.31357298235876,-43.84224070444705,127.9676726288801
