#Digilent WaveForms Network Analyzer - Bode
#Device Name: Discovery2
#Serial Number: SN:210321B213B5
#Date Time: 2024-02-15 02:29:50.436
#Start: 500 Hz
#Stop: 2e+07 Hz
#Steps: 501
#Wavegen: Wavegen C1
#Amplification: 1 X
#Settle: 10 ms
#MinPeriods: 16 
#Channel: Channel 1
#Range: 5.51697 V
#Offset: -0.000289588 V
#Relative: no
#Channel: Channel 2
#Range: 5.57616 V
#Offset: -0.000284749 V
#Relative: yes

Frequency (Hz),Channel 1 Magnitude (dB),Channel 2 Magnitude (dB),Channel 2 Phase (deg)
500.0000000000009,-0.5507994144510024,-41.64594017161797,-5.08330934695403
510.7097208762208,-0.5617104997775145,-42.88191036899487,-8.880163007556947
521.6488379949326,-0.5730031290752881,-42.81014707596631,-2.885673333922022
532.822264895593,-0.5680764557413523,-41.83670139889102,-1.226841968299219
544.2350203629271,-0.5749532796046494,-41.7603336728788,-1.608885167704817
555.8922306812275,-0.5969542627853388,-42.2138935456125,0.4516648633396368
567.7991319369378,-0.5918318211735006,-41.59128863890522,-5.738622943757834
579.9610723705468,-0.5968397131084584,-42.23491044838419,-9.095484748373989
592.383514778869,-0.6055369517491646,-42.38841531341436,-1.630721256232602
605.0720389687805,-0.6107507621128968,-42.43593873397859,3.296883036233819
618.0323442635009,-0.6169746263368522,-42.23228156729193,-7.00793031398391
631.2702520625768,-0.6246751346178515,-42.69408805007227,-3.053805869949082
644.791708456679,-0.6181865185919099,-42.83852319931486,-1.048428618429993
658.6027868984215,-0.6331221148130434,-42.54136018941813,-4.03052966310578
672.7096909303867,-0.6374434835148199,-42.49574041133882,-3.840654291668265
687.1187569715719,-0.6441060506063268,-42.27796798039807,-7.270121867752171
701.8364571635318,-0.6398360068303295,-41.28610906754213,-2.506974785002948
716.8694022774847,-0.6566873872017962,-42.69874507028517,-2.731510916600215
732.2243446836735,-0.6745634351194595,-42.14718795820752,-2.137435369695288
747.9081813843421,-0.6812250931617136,-42.30064146678848,-7.367772731296576
763.9279571116773,-0.7070491871410505,-41.07507363074163,-5.403738309210736
780.290867492091,-0.6934030932260299,-42.12435719646285,-7.799421697816166
797.004262278297,-0.6999798886835531,-42.27882215065588,-5.665398335713371
814.0756486506131,-0.7224191027990545,-41.70807866503524,-6.069561227334748
831.5126945889645,-0.7189612710887295,-42.39861112132201,-6.675233628104122
849.3232323171252,-0.7356837715635138,-42.12547997945976,-0.4642352374312848
867.5152618207356,-0.7452944669811494,-41.67623621887682,-10.2605408377365
886.0969544406555,-0.7603246047214081,-42.41456439881031,-4.289593922610658
905.0766565433113,-0.7626255848779826,-41.43954481597821,-12.54653646070675
924.4628932696336,-0.7792270856745249,-42.10194476655668,5.419307862968381
944.2643723643124,-0.7741616677108265,-41.663625684237,-8.335241643892969
964.4899880870739,-0.7998793228731716,-42.51458714366706,-1.265720036079442
985.1488252077163,-0.7899722788805745,-42.08388573309562,-7.958340190918233
1006.250163086735,-0.8169881008907109,-41.47490868995679,-4.119754039769944
1027.803479843355,-0.8230075632678309,-42.7959476678999,-7.755990614548033
1049.818456612814,-0.8302142169953679,-41.93999469855189,-2.819993325981392
1072.304981894866,-0.8598796765538703,-41.42179805280599,-11.61107496645728
1095.273155995412,-0.8683272336595464,-42.15632044192147,-5.351899112473034
1118.733295563266,-0.8689908263276431,-41.1317532340826,-5.404683356693265
1142.695938224099,-0.8926032273319882,-41.23926947415491,-6.924524658130657
1167.171847313637,-0.8996237058597479,-41.90636356426832,-8.029360959645889
1192.172016712258,-0.9318129936762926,-42.39164207731675,-4.415319500735385
1217.707675783115,-0.9381823429796106,-42.35700487834221,-1.645627778954707
1243.790294416048,-0.949633119243011,-41.71694436559257,2.202736060188411
1270.431588179542,-0.9582243554698158,-40.53004931679543,-11.92458954574308
1297.643523583014,-0.9871652142349195,-41.40775632333283,-3.197958710402149
1325.438323451828,-0.99909805781428,-41.51119723317184,-2.580885920782149
1353.828472417455,-0.9918634235980951,-41.31149384015598,3.112812903755191
1382.826722525193,-1.018756258150824,-40.36420864874053,-5.116157879918259
1412.446098962038,-1.022242764607418,-41.3733887899886,-6.542436081855993
1442.699905907216,-1.053695495359899,-41.85713549907903,-10.43837786598371
1473.601732508043,-1.048917453864082,-39.90956677616939,-4.318407695176753
1505.165458983793,-1.076854166099534,-41.1208627897386,-9.557261993690268
1537.405262860281,-1.117118345826646,-40.63982876360566,-9.459837046181619
1570.335625338007,-1.118633980824519,-41.77340325966434,-13.44325621870531
1603.971337796716,-1.139786914488409,-40.54265916527739,-12.2606171842934
1638.327508439235,-1.164748781603495,-41.2811241056002,-20.1724231184914
1673.419569077666,-1.173722584054681,-41.71543245878381,-4.439172916841936
1709.263282064918,-1.173915801823477,-42.16162028434173,-11.93057063892322
1745.874747374691,-1.195036338619063,-42.04491677428888,-22.34243875459757
1783.270409833135,-1.210855180302011,-42.48678164414318,-17.51796222831596
1821.467066505405,-1.236364653853048,-41.13148411845125,-6.380795256178314
1860.481874240405,-1.257507971996245,-41.67602352791842,-16.50682260391546
1900.332357377163,-1.273987491058499,-41.67697108581017,-16.80018962843324
1941.03641561628,-1.268306375784207,-41.6868713163995,-9.695099641327037
1982.612332059933,-1.295770920607004,-42.63344175551349,-21.62999473843269
2025.078781424159,-1.318837817931784,-42.49156481501916,-18.033952289011
2068.454838426975,-1.332276830389783,-40.96290092490975,-15.45932769163495
2112.759986356212,-1.372719006833076,-43.0426867767633,-20.21873170666863
2158.014125820852,-1.379243341334615,-43.18089176464818,-14.58354252397147
2204.237583689811,-1.385211349775604,-42.01903138899176,-11.28105786240656
2251.451122222194,-1.41605584767943,-43.21919960445918,-23.32335354563555
2299.675948393094,-1.424599427740614,-42.78534785024366,-26.010574285069
2348.933723419184,-1.443711754728206,-42.69039066941473,-13.01349788450219
2399.246572488303,-1.463602349223928,-42.735214237273,-16.51225441424115
2450.637094697454,-1.463452957535234,-41.99250791124915,-15.7201207511215
2503.128373203692,-1.495648941908706,-43.54806308485682,-31.42081996062111
2556.743985592407,-1.490600073660967,-43.61882289996692,-27.29828696235207
2611.508014467701,-1.522863728270939,-44.79316670194923,-9.916078475749197
2667.445058269619,-1.544429896667943,-43.36798120515803,-22.59065396258845
2724.580242323056,-1.570900152464616,-44.69940574691263,-11.19029023964978
2782.939230123342,-1.554192904924504,-43.06500571791432,-28.77810652251004
2842.548234863546,-1.586383545174787,-43.02442500959515,-15.55634772385595
2903.434031208703,-1.603727926334093,-43.94958898528487,-32.31412207435598
2965.623967322229,-1.622659229185497,-45.24816012843441,-20.47865008727812
3029.145977149923,-1.630329273768917,-43.95907312376502,-31.32203429530022
3094.028592967117,-1.675859253214389,-43.69180479387069,-29.17754745389171
3160.300958194555,-1.68448992230132,-44.9114363504334,-28.89899580883517
3227.992840488783,-1.658078196150566,-45.90854760463598,-31.03365650198678
3297.134645112921,-1.713831013075827,-45.8460644675786,-13.27725957138171
3367.757428593864,-1.718476208488883,-45.91975771520907,-22.88799214163594
3439.892912671974,-1.716538138196785,-45.0681140660189,-24.47341070818732
3513.573498549581,-1.753076044785919,-47.46596597106429,-35.79262228469783
3588.832281444676,-1.748017126460503,-46.59126384171042,-33.13532245134484
3665.703065456351,-1.74528290359333,-45.82467159183155,-1.600944282201723
3744.220378748634,-1.778479486999413,-47.7643764323052,-8.0839524187232
3824.419489059534,-1.800019142053597,-45.85288557584613,10.66817593305579
3906.336419542335,-1.816316942931024,-46.09348525142188,-26.80289730815779
3990.007964946156,-1.832137137925086,-49.02511065357591,-0.7142526786204847
4075.471708143087,-1.849205493553027,-46.42653186585319,-3.199071213752374
4162.766037009369,-1.852215923144473,-45.72110110271927,-2.046698937088929
4251.930161668121,-1.860294512803144,-47.11806189944659,-31.17163083591104
4343.004132101412,-1.883190959421902,-47.63323591794541,10.97320843948837
4436.028856139559,-1.880000512625241,-48.01516523331451,0.7613784023579064
4531.046117835777,-1.918046909978397,-47.9235905063988,11.60316368842327
4628.098596234379,-1.914468266060351,-46.87332274556219,29.66026420358778
4727.229884540964,-1.918603918979608,-47.46675138054853,16.98752997457398
4828.484509703277,-1.955366466193459,-46.29097601720134,24.12233132812711
4931.907952411419,-1.983965091818034,-45.84084201422083,17.13356906229577
5037.546667526489,-1.97387885026057,-45.06637763259009,34.92689433317314
5145.448104946764,-1.978581017597276,-47.55786989755357,24.16230267441107
5255.660730920867,-2.00136653341931,-45.31685741847691,12.79339775180776
5368.234049817411,-2.006520362521727,-46.56958152592426,23.59228724034406
5483.218626360933,-2.036393423860289,-44.30861292470146,15.56478764076216
5600.666108344157,-2.025384465399189,-45.98683707340886,3.551649750202591
5720.629249826698,-2.067607161973389,-45.49308580466638,25.5575786416698
5843.161934830659,-2.07676766396373,-42.3875427187013,27.73603429376316
5968.31920154383,-2.083681081478487,-45.96272144742009,34.85083630005916
6096.157267041259,-2.116905667112118,-45.50263252095083,27.01392614052783
6226.733552536361,-2.132922644115081,-42.60778731358598,19.57505343306136
6360.106709172869,-2.125520660192358,-43.38916465078511,15.23280864643016
6496.336644369291,-2.153188296526384,-43.20948369558672,20.03117898726207
6635.484548727598,-2.167499393462661,-43.45011822639555,22.68147041897826
6777.612923518275,-2.184893242488733,-44.05162120591194,18.67559604279868
6922.78560875415,-2.201397234131535,-41.99388330631827,43.30469913179112
7071.067811865488,-2.22220760931503,-43.06620517707887,27.71875615910781
7222.526136989285,-2.253068884290725,-43.38286455846256,45.27528724606426
7377.228614885992,-2.232293768733431,-42.58725227193602,18.98664154056797
7535.244733496967,-2.253213562062314,-43.7193135409506,12.55438021788125
7696.645469156483,-2.264800124173391,-44.18440230595522,27.28968427015044
7861.503318472251,-2.274547954759758,-41.82059174381553,26.27677061019603
8029.89233088887,-2.281807185561104,-44.3862820482648,29.07591056357438
8201.888141948706,-2.298452869008947,-42.22306756148329,32.67302573201029
8377.568007265194,-2.322513511306692,-43.08046904607966,2.891529940569603
8557.010837223905,-2.314399020123866,-43.22296524135758,43.48883382874169
8740.297232426808,-2.362425068416591,-41.92588318104649,31.32072866180768
8927.509519895782,-2.366530529268221,-42.0992231208041,12.41689063907369
9118.731790051532,-2.394554480190934,-41.5792692452204,40.51015093882604
9314.049934484652,-2.392429892619361,-41.58877517196429,12.65647392137909
9513.551684535661,-2.39957670907686,-42.11600674343024,27.44206295780797
9717.326650701387,-2.422167884628472,-43.55884494306768,9.178138920540555
9925.466362885505,-2.433192799940774,-40.70520535063685,22.62368460672523
10138.06431151113,-2.442220888215165,-43.28227654897083,24.14130771559007
10355.21598951402,-2.469670754055151,-41.44774861597584,23.16361823637754
10577.01893523534,-2.489854833324907,-42.38912569951881,12.96041119551211
10803.57277623305,-2.491173062425795,-42.46302532528357,31.88361471068819
11034.97927403182,-2.513284884133248,-42.066006433679,3.937967874844767
11271.34236983131,-2.535914722980499,-42.54314835838364,26.25232283953559
11512.76823119371,-2.540105582316383,-39.88366827967361,28.71392216445629
11759.3652997311,-2.542529081971073,-41.10707644982003,30.66668542483928
12011.24433981434,-2.550930925891497,-41.65428110141227,21.69648401800494
12268.5184883253,-2.589314981136281,-40.31951427519505,17.95067673878795
12531.3033054747,-2.622236321818888,-41.44717543991295,28.38865314623417
12799.71682670847,-2.603298884133032,-41.84876151285393,-6.470855366245476
13073.87961572586,-2.618855816423009,-42.42806645269715,13.45928897692406
13353.91481863329,-2.63335944002707,-41.33086901552197,-6.259763542780318
13639.94821925805,-2.659276415379114,-41.97603648479623,8.688906616923557
13932.10829564673,-2.66223184223728,-40.47850952196599,14.72633962196652
14230.526277774,-2.697427923916274,-42.67845239123726,25.51787022560355
14535.33620648734,-2.690057268817571,-41.56874997890861,32.73704286518051
14846.67499371431,-2.710641584280689,-42.81424138173608,24.56257316794248
15164.68248395956,-2.719483967527381,-39.83542647371727,12.45851410908452
15489.50151711896,-2.759405130728605,-41.22804388792387,12.22941046202141
15821.27799263921,-2.762599213901343,-41.01801124993671,9.346083141783945
16160.16093505169,-2.792273442065258,-41.96553621822624,12.37946347563866
16506.30256091006,-2.792826391633466,-41.68843296244742,22.36655614401789
16859.85834716162,-2.819260751237059,-40.84329535511934,11.18968482391237
17220.98710098302,-2.820568140412296,-39.99810588791946,7.346181104912771
17589.85103111202,-2.833617568154085,-40.26828146108041,31.18114420945804
17966.615820707,-2.861864653678708,-40.03741312857436,16.72721089820979
18351.45070176709,-2.87897991156043,-40.00579621918731,16.73019434602709
18744.52853114634,-2.895866897813724,-39.06130135332261,30.32203227030419
19146.02586819613,-2.869821649851757,-41.65173179302226,38.62730985036794
19556.12305407065,-2.898190411857545,-38.61229681255355,29.47867076080203
19975.00429273085,-2.948989658137519,-39.1958309244778,32.91180267841666
20402.85773368371,-2.940557075689101,-41.49824373349203,17.81499404858355
20839.87555649364,-2.948238304851297,-41.01040173055004,30.18275731788329
21286.25405710405,-2.974012925501694,-39.42528879888555,30.54728431843127
21742.1937360078,-2.948350434584679,-38.60536134133885,23.28466151152587
22207.89938830645,-3.000413533999185,-39.98836321331855,21.57154911528719
22683.58019569833,-3.026408290397326,-37.62818484334998,26.0056352636038
23169.44982043686,-3.001359414867858,-38.44488842885468,13.43606967124621
23665.72650130175,-3.025765415973628,-40.20772504724445,29.63330999230767
24172.63315162553,-3.090813255121099,-39.88276749180844,9.55537056478417
24690.39745941987,-3.044888282277027,-38.61149175352216,34.94917753881194
25219.25198964647,-3.081902167388278,-38.96892804018737,14.77382842221322
25759.43428867878,-3.09619265389187,-39.91330036897371,4.38891269031699
26311.18699100093,-3.108394212739003,-38.98686434841374,19.51488733474617
26874.75792819219,-3.097872517581583,-38.83985139764742,28.96564018864962
27450.400240246,-3.136128668657716,-37.60466298105705,22.82259133634016
28038.37248927307,-3.156845301811649,-38.16348703938918,15.40271064413854
28638.93877564026,-3.162332626781186,-37.32240962581297,26.99506595017059
29252.36885659674,-3.190159624341073,-37.23301319051535,17.01453079031521
29878.93826744147,-3.193231924755453,-36.67666742251899,11.6334101929456
30518.92844528567,-3.202969305178176,-37.3338710532368,11.92209508591668
31172.62685546631,-3.190533241167801,-37.06504045253938,14.14683399803285
31840.32712066748,-3.186655862761632,-36.68701930075896,5.667943873750157
32522.32915280724,-3.20220100631924,-36.62452400906808,10.99080491474636
33218.93928774943,-3.234683130756226,-36.36877107682047,5.99635608991741
33930.47042290118,-3.27259550866742,-36.50090244002769,8.930770263390496
34657.24215775735,-3.223348178767644,-36.35686484312681,5.099750079689914
35399.58093745563,-3.240812878987593,-36.2009838724378,-1.347757700157391
36157.8201994062,-3.246657445205197,-36.34531422567113,-9.276827775113418
36932.30052306253,-3.231344340674107,-37.55730383733793,-13.59664067110664
37723.36978289979,-3.287203931184981,-37.58446974568675,-8.156958216919218
38531.38330467035,-3.279041861648452,-38.64328702653462,-23.79075333866154
39356.70402500563,-3.237181400652738,-38.06554731944904,-15.59259309424787
40199.70265443721,-3.314248881679092,-38.72260805500424,-42.18915919012642
41060.75784390931,-3.212640374434618,-40.41091506854329,-29.80198328529433
41940.25635485791,-3.265924627100115,-38.31960417762047,-26.64983481389429
42838.59323293314,-3.23062571050783,-38.38032248755223,14.33440399858473
43756.17198544241,-3.194478148592882,-36.05188877952864,-0.3605615338452125
44693.40476259428,-3.223548132425423,-37.95334029033879,-14.45604524501562
45650.71254262483,-3.181093448249019,-37.55260235116609,-10.95563425751385
46628.5253208889,-3.139457048730788,-38.07935692925868,20.81192818261122
47627.28230300184,-3.131742136437031,-39.93410598442617,21.55619792014849
48647.43210211794,-3.087363587780196,-39.08202502472218,-15.54493429770104
49689.43294043497,-3.071063289995262,-38.08034502851348,-4.475345375921536
50753.75285501438,-3.068650468615638,-38.31775095127875,35.6879150397934
51840.86990801002,-3.10597443169264,-38.40741524417733,21.19219873693624
52951.27240140039,-3.106405429840786,-40.58436861503425,17.0474268189716
54085.4590963197,-3.135210907513632,-38.4243833089697,16.76413649961589
55243.93943708728,-3.145466210911599,-37.7904774502292,18.35780658975774
56427.23378003521,-3.204195065956212,-37.80532069547756,11.3976151216682
57635.87362723792,-3.246123176383832,-36.95741644877249,-15.1697213855142
58870.40186524752,-3.301774955474184,-38.3659450935539,-1.180239432670881
60131.37300894284,-3.337229019441214,-38.38091199428651,-9.603612609857866
61419.35345060204,-3.373707592614951,-36.50208609725315,-13.40010683893082
62734.92171430973,-3.463294320628803,-37.92840852320902,-39.97019845555577
64078.66871581318,-3.511217919558625,-37.8266857447362,-21.83966105330704
65451.19802794535,-3.549356969598533,-36.03195731526957,9.988675841501209
66853.12615173226,-3.650884274819245,-36.89961296708623,11.33579932803271
68285.08279330778,-3.667096358189962,-36.01791397376378,-43.30309190539706
69747.7111467595,-3.738467055243742,-36.59273417383064,-2.071019154808542
71241.66818303343,-3.762075248412893,-37.79093105632572,-20.664970317974
72767.62494502655,-3.779771185048622,-36.44127879318432,-15.85816399114329
74326.26684899985,-3.873480828793982,-37.69313557957528,-34.04233850279694
75918.29399244821,-3.910722312480195,-38.71659842241142,-2.15932991130128
77544.42146856396,-3.958679480389122,-37.34981487526356,0.5586076379428576
79205.37968743649,-4.014737945936448,-37.95895706389138,-2.880646379103719
80901.91470413134,-3.997479461724986,-38.89727098653887,-2.763391076638452
82634.78855379723,-4.092996537017244,-38.05178370820042,-18.87918721646736
84404.77959395046,-4.164216105285635,-37.88263918878253,33.24057484928582
86212.6828540905,-4.126452489137671,-38.35929965537981,11.45246182351385
88059.31039280516,-4.244059963245728,-37.3884758782788,71.07671168761966
89945.49166252385,-4.275073545999925,-35.89462268506723,-29.97699915233796
91872.07388208374,-4.337904764321754,-39.47208047821595,5.511616290952734
93839.92241727677,-4.410169827514294,-38.68341318794174,6.82263633547732
95849.921169547,-4.411936152366957,-37.32475118946989,2.410941624806373
97902.97297301404,-4.48160471400976,-35.70629330373198,15.21786273158701
100000.0000000001,-4.565565321452208,-35.35063012984971,27.41258135400436
102141.9441752439,-4.540529286176682,-33.78307705213022,70.69826790624933
104329.7675989865,-4.674555501871022,-37.86421274667429,-10.94595233782334
106564.4529791185,-4.71767775965588,-37.03319551344093,56.01312669657134
108847.0040725852,-4.725394043130496,-34.62209540808395,39.19824751043446
111178.4461362454,-4.784596633099044,-34.80382442382351,66.05273583809912
113559.8263873875,-4.786043757745653,-34.05489627533039,63.98960712823695
115992.2144741091,-4.935385533570727,-35.96826809875499,2.944400346307266
118476.7029557737,-4.946766679590879,-34.65199558385918,51.56073983155668
121014.407793756,-4.943352322477103,-35.55221553101044,61.78330034844943
123606.4688527002,-5.038204179316693,-34.3381072585694,53.7482136758808
126254.0504125152,-5.107453201343251,-34.47468585049365,78.13321743468482
