#Digilent WaveForms Network Analyzer - Bode
#Device Name: Discovery2
#Serial Number: SN:210321B213B5
#Date Time: 2024-02-15 02:32:58.763
#Start: 500 Hz
#Stop: 2e+07 Hz
#Steps: 501
#Wavegen: Wavegen C1
#Amplification: 1 X
#Settle: 10 ms
#MinPeriods: 16 
#Channel: Channel 1
#Range: 5.51697 V
#Offset: -0.000289588 V
#Relative: no
#Channel: Channel 2
#Range: 5.57616 V
#Offset: -0.000284749 V
#Relative: yes

Frequency (Hz),Channel 1 Magnitude (dB),Channel 2 Magnitude (dB),Channel 2 Phase (deg)
500.0000000000009,-0.5431541310071319,-41.87105654523422,-1.391231834489679
510.7097208762208,-0.562485892960765,-42.84127178328177,4.846629713662795
521.6488379949326,-0.5670108192647536,-42.94545401266186,-0.09762511011769411
532.822264895593,-0.5948241696364303,-42.52515319145681,-5.418233785149631
544.2350203629271,-0.5760215419301955,-42.52738787802529,0.7608605856174911
555.8922306812275,-0.5920836912170664,-41.13569829535936,-5.588105210298388
567.7991319369378,-0.5782119794415231,-42.37461088507628,-6.146813756621127
579.9610723705468,-0.5992352907767168,-42.97089804568158,-10.43432549101241
592.383514778869,-0.6123283232477642,-42.29749349286635,6.130039629837444
605.0720389687805,-0.6104856452918652,-42.8828625263323,4.603418663652426
618.0323442635009,-0.6168859790932978,-42.33209571203334,-0.4671722634301808
631.2702520625768,-0.6282725788396161,-42.69467410832416,-3.468961425225673
644.791708456679,-0.6214355445438681,-41.97061919140148,3.413479172968864
658.6027868984215,-0.6263284543887037,-40.83094934594862,-3.216615279445671
672.7096909303867,-0.6462607363850188,-41.69838720714283,-4.691523114538749
687.1187569715719,-0.6380586179784773,-42.75925215207202,-10.12492858437803
701.8364571635318,-0.6315569102798995,-40.87869286238613,-10.42894788571512
716.8694022774847,-0.643986942973692,-41.73755019418792,-5.992500362800202
732.2243446836735,-0.6702288636329352,-40.9785933613737,0.3683725319544749
747.9081813843421,-0.6840044516666068,-41.17345963901336,-0.3324314093813918
763.9279571116773,-0.7158023440464033,-42.36471278751065,3.038909586414422
780.290867492091,-0.699376711044703,-40.32285457823448,-7.44574217480457
797.004262278297,-0.6960002740366549,-42.18538666672742,-7.837189562826015
814.0756486506131,-0.7265383319011225,-42.04964289229941,-8.898395293380137
831.5126945889645,-0.7253962465922781,-41.77809480415015,-1.741683812522906
849.3232323171252,-0.7498303599077538,-41.79244948019488,-5.601122524329109
867.5152618207356,-0.7520701037106834,-42.97510392037945,-1.420643074331223
886.0969544406555,-0.749263055856474,-42.06161110408752,-7.516095833789626
905.0766565433113,-0.768651502993815,-41.81116309831445,-2.867152564862671
924.4628932696336,-0.7715947373502909,-40.69843207196179,-7.551351254947856
944.2643723643124,-0.7623382066827389,-40.19303094356123,-8.528443674712154
964.4899880870739,-0.8004592726023756,-43.28623300830188,-10.26197264030877
985.1488252077163,-0.8009095950098999,-41.10510175464889,-1.798244922156709
1006.250163086735,-0.8244525433896348,-41.65193732084901,-6.164679601559253
1027.803479843355,-0.8169835453733991,-41.34869991191043,-9.614628988067242
1049.818456612814,-0.8352909985922584,-41.58225441315062,-1.499302984989766
1072.304981894866,-0.8532083597314353,-41.34208826143504,-12.35396602120461
1095.273155995412,-0.8774662803371435,-41.15554916270458,-7.696260680953971
1118.733295563266,-0.8610389167403014,-42.02217023893076,-1.263931445163008
1142.695938224099,-0.8780408060421721,-40.65385094553086,-8.778650634172672
1167.171847313637,-0.900302709398622,-41.56447376093097,-2.508741099889652
1192.172016712258,-0.9298907396606194,-41.04203288116275,-4.340570626273442
1217.707675783115,-0.9451013394666409,-41.75886853097062,-4.520275509219665
1243.790294416048,-0.9328382944727754,-41.83206911648998,0.8232988755883461
1270.431588179542,-0.9752953853415652,-41.11495495175788,-15.14625621418992
1297.643523583014,-0.9746328923413119,-41.66468681218488,-5.507871083007712
1325.438323451828,-0.9821107238350757,-41.59600770628199,-6.820944057499228
1353.828472417455,-0.9831960972220949,-40.51141254557444,-6.981723971640579
1382.826722525193,-1.032431283262199,-40.98128179761045,-11.04644312917171
1412.446098962038,-1.024099232763154,-41.51536615818185,-6.478656508517782
1442.699905907216,-1.058124662965332,-41.69290923771584,-4.180794869711614
1473.601732508043,-1.051894617493615,-41.26176387189555,-9.704271148190223
1505.165458983793,-1.09360716609048,-43.28830064389157,-7.629400713194242
1537.405262860281,-1.094579532704453,-40.42864353150496,-6.023201682023165
1570.335625338007,-1.12012793630703,-41.09632083897171,-6.654792148298979
1603.971337796716,-1.137030035419346,-42.27386940879329,-18.75245780992504
1638.327508439235,-1.139469552321622,-41.26936342405666,-15.4687648272453
1673.419569077666,-1.137994367345295,-41.44391366003762,-12.22074517532695
1709.263282064918,-1.17188649566098,-40.73346378538987,-4.740968890321523
1745.874747374691,-1.217247647039773,-42.10805632172104,-7.299273032204146
1783.270409833135,-1.194776134864377,-40.68566044562753,-30.91289310579116
1821.467066505405,-1.224495441112871,-41.21723327389424,-7.71454302368434
1860.481874240405,-1.245022560100944,-42.72175053871717,-19.01892356974976
1900.332357377163,-1.287026655874906,-41.44473638502162,-11.053770157212
1941.03641561628,-1.297659875331795,-42.3926831589248,-15.39010637384148
1982.612332059933,-1.290544544915566,-41.52450328724619,-0.526061471829761
2025.078781424159,-1.309081593816311,-42.03054246944334,-5.683104187976153
2068.454838426975,-1.314439321560671,-42.53635203855731,-17.81487463120798
2112.759986356212,-1.354326171109026,-41.50431324064745,-18.65709452057339
2158.014125820852,-1.352481250378028,-44.04349737680334,-18.81994603174692
2204.237583689811,-1.378522423574058,-42.6640182393252,-18.62690699327295
2251.451122222194,-1.418930536186119,-41.77008560993517,-23.03736546246803
2299.675948393094,-1.413455555722742,-42.47556500667764,-24.90109955551269
2348.933723419184,-1.429447708912355,-42.15133704965035,-3.624106437408236
2399.246572488303,-1.428702848838542,-42.80917502244201,-7.797173621039137
2450.637094697454,-1.481293355672056,-41.92068657577841,-22.50948722158664
2503.128373203692,-1.482115746244066,-42.53816605638882,-31.79300452980315
2556.743985592407,-1.505635010281938,-42.13136332415021,-26.6384216689821
2611.508014467701,-1.500362880300881,-41.71158011391611,-8.585264405567552
2667.445058269619,-1.500345756033411,-44.29844887579179,-23.74714539117436
2724.580242323056,-1.577610204720743,-42.83309744933653,-25.17343290733672
2782.939230123342,-1.536293729276441,-43.80622570409018,-23.29023898809515
2842.548234863546,-1.587772600647981,-44.7593770604713,-31.89566634255899
2903.434031208703,-1.59275508523141,-42.99408114553518,-20.29617768773137
2965.623967322229,-1.600758102413794,-44.1846435402777,-26.470466415544
3029.145977149923,-1.619751509324692,-45.38226569927271,-18.68494232633279
3094.028592967117,-1.637329042004184,-44.49109185605366,-21.35211126591017
3160.300958194555,-1.646814553611567,-47.5334789426784,-17.28984031178061
3227.992840488783,-1.663924593110153,-45.80652923013058,-22.50824355623487
3297.134645112921,-1.698221203168004,-45.30176834558469,-7.735684757810728
3367.757428593864,-1.693354546585993,-46.63610007606263,-30.99382768121768
3439.892912671974,-1.700692464073644,-44.32999664666959,-38.92468367491863
3513.573498549581,-1.737699958960637,-45.71849578158957,-7.623951380102301
3588.832281444676,-1.73457375189004,-48.57911743271043,-10.51266868302758
3665.703065456351,-1.761856867401783,-45.0459349842449,8.55804076056349
3744.220378748634,-1.765476416085919,-45.53066417652264,-16.05549752393014
3824.419489059534,-1.774747518114927,-46.44118610963793,-8.469694703408212
3906.336419542335,-1.778301183303332,-46.584643989767,14.62002037351188
3990.007964946156,-1.811928157408747,-46.72923786361282,-17.52308893463302
4075.471708143087,-1.848313099848756,-46.1143945400551,-1.524560376271084
4162.766037009369,-1.849703801108118,-48.66741977519374,0.06044925909952283
4251.930161668121,-1.837847488305942,-49.33039082335658,-20.74180576758054
4343.004132101412,-1.85031294757682,-44.41805720448205,-2.670348978383219
4436.028856139559,-1.868788977687511,-47.58506537972585,-8.127324861630049
4531.046117835777,-1.905638492886781,-45.49709902279221,3.969156149358817
4628.098596234379,-1.892730072088006,-47.29381349333534,-3.273920119685408
4727.229884540964,-1.872973714283567,-47.52094186695193,9.817468907838148
4828.484509703277,-1.938639276044962,-47.83935506065962,6.909912621597966
4931.907952411419,-1.946649832426658,-45.32960612646527,23.93416368068266
5037.546667526489,-1.962413341129394,-48.72473770273733,40.95994056697842
5145.448104946764,-1.9572589252506,-44.29925421648442,9.666559387244106
5255.660730920867,-1.979803556072773,-46.16633305408816,25.0543182890824
5368.234049817411,-1.989265004218512,-47.09667151701411,1.906529311164579
5483.218626360933,-2.022329271683457,-44.68922229469675,39.14822289434504
5600.666108344157,-1.99099133430453,-45.19741843102714,30.29446914701692
5720.629249826698,-2.046981230187914,-44.3377502342404,24.11310103600811
5843.161934830659,-2.078520647536777,-44.22429026257618,28.93827397318544
5968.31920154383,-2.047642523180385,-45.53417162050246,7.047023723669784
6096.157267041259,-2.097085236978321,-42.07761491072679,19.26592549897148
6226.733552536361,-2.118305878207838,-43.49214036402822,26.2032430736014
6360.106709172869,-2.072928336015103,-44.84320949425246,25.63943456395261
6496.336644369291,-2.110169053248748,-42.16919367893546,37.21621672214063
6635.484548727598,-2.139839058912505,-44.55537971838631,19.94591501096212
6777.612923518275,-2.147456530310046,-43.14478346926798,12.69762406254939
6922.78560875415,-2.15401966732651,-41.44560607198613,20.11489633910973
7071.067811865488,-2.177962202175384,-42.98829210355241,21.3546208860567
7222.526136989285,-2.196701322291486,-43.92310226071523,34.04315197597466
7377.228614885992,-2.210589752070626,-44.19389812721721,42.23838103021988
7535.244733496967,-2.197273485926311,-42.53307856579509,30.50117054439589
7696.645469156483,-2.218524212339981,-43.33713105701757,14.20687160988058
7861.503318472251,-2.225639383820144,-42.34539373153066,34.13017313203177
8029.89233088887,-2.246856687143077,-40.65014523013689,36.87462848302156
8201.888141948706,-2.263601328018627,-43.76690606217743,1.958623914814461
8377.568007265194,-2.311072113279946,-41.66082723301136,35.34528434252114
8557.010837223905,-2.29503791256188,-41.75974257659771,24.03332790282724
8740.297232426808,-2.306455788267079,-41.67488079548384,26.21149846700009
8927.509519895782,-2.33294186861823,-43.49314682297881,30.10204668048677
9118.731790051532,-2.352970621210497,-44.88494405502321,32.89545836661928
9314.049934484652,-2.346841936545697,-43.92423164659846,6.201153799611673
9513.551684535661,-2.354253191831115,-42.29205152846706,13.68927502006455
9717.326650701387,-2.388373701853536,-42.53619738486943,35.13394151520107
9925.466362885505,-2.387419263101368,-43.07700575118166,35.16433332271558
10138.06431151113,-2.421426591297463,-42.7887482710989,33.39028462076622
10355.21598951402,-2.415150524523576,-41.75440730433201,17.92377050474216
10577.01893523534,-2.454152086041382,-42.59727684323729,35.77547453902944
10803.57277623305,-2.434941242082298,-42.01184438568029,26.98655878319014
11034.97927403182,-2.452372034332873,-43.38383531862195,45.33923149222012
11271.34236983131,-2.466402583067921,-41.05095350306908,13.39518407122198
11512.76823119371,-2.49285281346077,-41.25711110097379,17.5755674796253
11759.3652997311,-2.527904671172725,-42.62193043182848,9.892969253715867
12011.24433981434,-2.523563553591786,-41.41412961173762,16.53401072519471
12268.5184883253,-2.551762143945353,-40.8804512058239,42.29786162072667
12531.3033054747,-2.551952560995332,-44.29070415132671,39.17200479545062
12799.71682670847,-2.611032158882808,-40.75730322737265,10.57272924430641
13073.87961572586,-2.59787239737908,-40.66325706915228,-6.068195287377416
13353.91481863329,-2.60935686683498,-41.48633335625799,1.088775513491135
13639.94821925805,-2.609943432979241,-39.71340639044839,20.63351208410295
13932.10829564673,-2.640391636301,-43.05801917478447,33.17548481803904
14230.526277774,-2.63073354508843,-41.77483169771403,42.6935231456179
14535.33620648734,-2.655923591313194,-41.7925573682712,30.93247150434213
14846.67499371431,-2.669663304720924,-40.86489525955123,23.27066371035447
15164.68248395956,-2.681933846824193,-42.05491060781847,22.2929385747949
15489.50151711896,-2.722395219606477,-43.16830368623889,15.14836201884342
15821.27799263921,-2.720953667475627,-40.07154367324183,16.30074128150684
16160.16093505169,-2.716262443615824,-42.78943222737315,21.17853200511109
16506.30256091006,-2.744919529285052,-39.60702600427339,18.64478423163727
16859.85834716162,-2.787006018650475,-40.74514300662046,5.795925426547968
17220.98710098302,-2.807320405467799,-42.07508391268831,11.61293503017939
17589.85103111202,-2.826271105114571,-40.49075614363518,44.70204979668112
17966.615820707,-2.787181743585464,-39.47204968938748,20.44207069268345
18351.45070176709,-2.847718796266945,-40.63105657514229,28.7357997100629
18744.52853114634,-2.838302994553023,-39.96850859787001,36.67138132757091
19146.02586819613,-2.8264433733533,-40.78597263068987,9.730192623180807
19556.12305407065,-2.862019939350216,-42.14816326438807,14.07841342585009
19975.00429273085,-2.891004606639033,-41.59807055180578,37.32699969769376
20402.85773368371,-2.907889090428498,-39.23581652193053,20.7483587616351
20839.87555649364,-2.931260173223799,-39.78976534991681,30.30615508245551
21286.25405710405,-2.935660567655349,-39.00427101327313,23.85958895195811
21742.1937360078,-2.920322734828407,-40.96855891661158,19.18674269343932
22207.89938830645,-2.991655216419784,-41.0167386282194,-0.1784277544626192
22683.58019569833,-3.011610791588973,-41.01825053490651,-2.44920490432479
23169.44982043686,-2.990326977721973,-39.36210568901276,15.23236846962059
23665.72650130175,-2.983359396683876,-39.08073106218264,5.312066645754247
24172.63315162553,-2.997917896632221,-38.29991790704513,26.72395567708592
24690.39745941987,-3.050652777224694,-36.75925491623203,21.98745174713364
25219.25198964647,-3.057412705751609,-37.09280416217281,26.51944474272947
25759.43428867878,-3.054916789132501,-35.82368596288561,21.39650329196511
26311.18699100093,-3.020254097481965,-36.68640960728046,25.78141696720272
26874.75792819219,-3.049984763694475,-36.93837273594708,19.4951843180005
27450.400240246,-3.096412318851807,-36.47543873212852,23.91530601241573
28038.37248927307,-3.1304746436153,-35.96000942860891,32.98592642058354
28638.93877564026,-3.133586284410794,-38.93470625547094,21.56281727139796
29252.36885659674,-3.159447512390058,-40.96424754359235,-9.242482856410566
29878.93826744147,-3.135410838968567,-38.05573766685207,23.5039479357603
30518.92844528567,-3.193624533373811,-34.91173941672913,3.818194806664145
31172.62685546631,-3.157436770960783,-35.11280966613202,14.23314757137902
31840.32712066748,-3.164022315424456,-36.40996805404063,-4.915665810901703
32522.32915280724,-3.223600074866305,-35.56373470099437,2.160940793751916
33218.93928774943,-3.1809846895522,-38.4315890220532,3.34971602318499
33930.47042290118,-3.194783916881275,-36.75178275827526,-7.76114529356353
34657.24215775735,-3.173631527267101,-37.53355073278492,-14.15033257804246
35399.58093745563,-3.227234846722938,-38.20985378026472,9.286453348127923
36157.8201994062,-3.216966036260747,-37.29060916609677,19.61531324163013
36932.30052306253,-3.196896373780284,-38.55117786981965,-1.037346733942445
37723.36978289979,-3.201950982370108,-36.25292611038639,-4.52465291580473
38531.38330467035,-3.214488311357683,-38.33141057774095,-54.97675327800785
39356.70402500563,-3.251770960741471,-36.20164892227517,-24.94697480753021
40199.70265443721,-3.247438033536939,-37.1156829333116,17.84892905993976
41060.75784390931,-3.276653322141859,-37.72052670046032,19.48267948456394
41940.25635485791,-3.203180537039596,-37.14726063692694,21.51612149110745
42838.59323293314,-3.197081932492694,-38.87423656683114,37.14883696697228
43756.17198544241,-3.188421214268116,-39.33905595506398,-63.41313855096591
44693.40476259428,-3.175163992303489,-37.51761066844441,9.932303879824898
45650.71254262483,-3.136885746129976,-38.24984588517017,1.539393543061777
46628.5253208889,-3.097228959548588,-39.18986163753785,10.79916727182818
47627.28230300184,-3.058078791153064,-40.05320751499377,28.75827820380206
48647.43210211794,-3.055721327723714,-38.07182901680795,9.961646021260878
49689.43294043497,-3.107618925618977,-41.93700285410608,14.58946234843523
50753.75285501438,-3.074141376852854,-38.11868889342436,11.97965487442663
51840.86990801002,-3.100694366356021,-37.00267044511557,12.83486587664067
52951.27240140039,-3.134755308732679,-36.52226777760907,12.45774915929404
54085.4590963197,-3.089077686348203,-38.98620015541574,27.06053484769193
55243.93943708728,-3.160129794805627,-38.75018455428324,-17.42810521389054
56427.23378003521,-3.131854531774479,-38.2243277759074,40.16883369524687
57635.87362723792,-3.262049554084997,-36.95154332506725,3.310709775514644
58870.40186524752,-3.228540605323179,-37.85930547597949,10.99853897219961
60131.37300894284,-3.375608468885088,-39.2326484835891,-1.487002372203104
61419.35345060204,-3.402387793749657,-37.98356735498479,-31.14461799052128
62734.92171430973,-3.416840785184258,-37.81563407136876,-19.63591762795749
64078.66871581318,-3.462769638511117,-39.59604300579532,-36.07900770169818
65451.19802794535,-3.550344418273375,-34.17634411905278,-20.42590452128079
66853.12615173226,-3.545737116714692,-39.0667721864109,-63.09723146989518
68285.08279330778,-3.643580521633252,-37.84585028807898,-14.48865736785867
69747.7111467595,-3.728118315418782,-38.64969864604785,10.49710012689538
71241.66818303343,-3.74638281780752,-35.95519795401011,39.21811885083768
72767.62494502655,-3.789399064268921,-37.97679777590609,-22.55189992865173
74326.26684899985,-3.848370731338668,-39.33811085128575,12.39945185844315
75918.29399244821,-3.897358628691166,-40.58788165904271,35.5557877937748
77544.42146856396,-3.919418210537653,-38.89972237338782,-6.829820293073868
79205.37968743649,-3.951465179895775,-37.56935043098187,-43.60651107921018
80901.91470413134,-4.030073538419,-39.89719621291231,-56.40556787397347
82634.78855379723,-4.116908704053563,-36.20502039831987,11.18618534631534
84404.77959395046,-4.102687785249504,-37.04714336302501,2.723759883312668
86212.6828540905,-4.181140570426955,-37.15776585590434,35.44086520898594
88059.31039280516,-4.230885198314838,-38.17649934212677,11.82250045389938
89945.49166252385,-4.284244256644849,-38.69630642833139,-53.31212549341578
91872.07388208374,-4.314870401890577,-36.03551507895522,80.36237984702531
93839.92241727677,-4.353757417497297,-35.61109419162626,40.37802614221347
95849.921169547,-4.396975337088952,-37.65830868000598,50.89644680007226
97902.97297301404,-4.390291638723182,-37.25578581056458,-19.85144016671042
100000.0000000001,-4.504436053485191,-38.31576846338333,42.0714366484194
102141.9441752439,-4.559105255244749,-37.4274652961935,29.39135265769471
104329.7675989865,-4.601828114560051,-36.73544054900909,3.946259723387838
106564.4529791185,-4.626685720055288,-36.5016457529704,67.80050985396775
108847.0040725852,-4.702216034754738,-36.72140050963247,48.26563580876682
111178.4461362454,-4.706308630769705,-34.73313785277762,63.36719558203126
113559.8263873875,-4.869168397238949,-34.51649661925242,45.97959287606382
115992.2144741091,-4.781205794594722,-35.53042189481837,59.0799762952016
118476.7029557737,-4.941914387404747,-36.58924495919,27.93030237614966
121014.407793756,-4.897785735000372,-34.38254277706627,37.92231167300983
123606.4688527002,-4.993694826034483,-36.51070032907916,69.45033385390272
126254.0504125152,-5.054630251987131,-33.4204532955618,62.05328282432826
