#Digilent WaveForms Network Analyzer - Bode
#Device Name: Discovery2
#Serial Number: SN:210321B213B5
#Date Time: 2024-02-15 03:03:32.951
#Start: 500 Hz
#Stop: 2e+07 Hz
#Steps: 501
#Wavegen: Wavegen C1
#Amplification: 1 X
#Settle: 10 ms
#MinPeriods: 16 
#Channel: Channel 1
#Range: 5.51697 V
#Offset: -0.000289588 V
#Relative: no
#Channel: Channel 2
#Range: 5.57616 V
#Offset: -0.000284749 V
#Relative: yes

Frequency (Hz),Channel 1 Magnitude (dB),Channel 2 Magnitude (dB),Channel 2 Phase (deg)
500.0000000000009,-0.6350284879073278,-56.8912462620851,-42.96049523372285
510.7097208762208,-0.6370476348535554,-57.83028419432657,-35.59154439395047
521.6488379949326,-0.647658395041931,-58.30146964042591,-30.85899725090674
532.822264895593,-0.6491513882310158,-56.69093281701614,-40.14204491020804
544.2350203629271,-0.657292318493335,-56.71214416090366,-50.4686823222745
555.8922306812275,-0.6676013430033262,-57.52487548885174,-42.8292867434813
567.7991319369378,-0.6673417352970085,-57.01209518535894,-35.24277002676577
579.9610723705468,-0.6744237753820936,-58.61476225020348,-41.75810839722076
592.383514778869,-0.6798498963739437,-57.01036542600866,-43.87801657271397
605.0720389687805,-0.6877269496389149,-56.59817015504998,-38.11517134530262
618.0323442635009,-0.6922240372058337,-57.48231429007208,-34.85424673210024
631.2702520625768,-0.7025563148642339,-57.68400644687985,-41.87170912576972
644.791708456679,-0.7053435651657958,-57.52871284087722,-40.7442591497202
658.6027868984215,-0.7183782588575873,-57.23893422537739,-42.21414539309104
672.7096909303867,-0.724473879847314,-55.95679782157998,-39.80606031865345
687.1187569715719,-0.7265890504435175,-56.15960628708594,-41.28873237609139
701.8364571635318,-0.7376269442014016,-56.77478336266373,-30.40609512853135
716.8694022774847,-0.7478088856995355,-56.23862507090236,-37.1977455268223
732.2243446836735,-0.7537875137258583,-56.98596132224779,-38.55756678523633
747.9081813843421,-0.762394226569601,-56.92827340355581,-42.28880987286755
763.9279571116773,-0.7776181978777524,-58.12112288273152,-41.88547956881882
780.290867492091,-0.7824198165718599,-55.54334729830826,-38.23854410529285
797.004262278297,-0.787881417521362,-56.01571386875609,-36.98014867964022
814.0756486506131,-0.8016262753266147,-56.98684476878203,-42.23443523010738
831.5126945889645,-0.8099296622940276,-56.01078961039801,-43.8009424043308
849.3232323171252,-0.8191287307045134,-54.94891657165833,-44.06057715021923
867.5152618207356,-0.8267841356698027,-57.46565994742328,-40.85370895075253
886.0969544406555,-0.8396313280415767,-55.8917029513683,-47.96518238240561
905.0766565433113,-0.8505138036057792,-58.37889841819354,-41.1891625721485
924.4628932696336,-0.858265629500361,-55.08449391395391,-39.49786571053296
944.2643723643124,-0.8704298530140167,-56.16845987442056,-31.26061451583841
964.4899880870739,-0.875678438396183,-54.25627065629293,-40.57757579131113
985.1488252077163,-0.8928586112910346,-56.60243599708024,-37.59109905875033
1006.250163086735,-0.9043072711433408,-53.7025060294869,-41.24131639537907
1027.803479843355,-0.9114848020639449,-55.40317552485593,-42.79734546354263
1049.818456612814,-0.9248551623100218,-54.65313829526878,-45.47964889571726
1072.304981894866,-0.9421506757473551,-55.09627154931336,-53.02702619944529
1095.273155995412,-0.9503370964012009,-54.62454043669617,-46.58563971015828
1118.733295563266,-0.9640272518027124,-55.12311351962609,-45.78369349906582
1142.695938224099,-0.9784227240043555,-55.55042051666592,-61.99326104302698
1167.171847313637,-0.9933224558207904,-54.11190817185614,-43.85626805113107
1192.172016712258,-1.005403318500265,-53.43538879039295,-51.25754245857782
1217.707675783115,-1.013286638076347,-54.80751831513331,-46.14762120741038
1243.790294416048,-1.029200864986429,-53.8570125771167,-53.24412722647196
1270.431588179542,-1.048003827693234,-53.6360514478435,-47.01237889719341
1297.643523583014,-1.059535469321659,-52.2639551519531,-49.79886024948442
1325.438323451828,-1.082026849039003,-54.27744200684103,-52.63745335658187
1353.828472417455,-1.094350118794019,-53.38422359795325,-58.6701376239829
1382.826722525193,-1.107382764221392,-53.32847975150135,-49.32667479694673
1412.446098962038,-1.130768095012742,-54.41629657166174,-66.07372176044811
1442.699905907216,-1.146022611246325,-52.69510425066926,-60.8160708738939
1473.601732508043,-1.161195363231927,-52.38676385847796,-63.9371480017547
1505.165458983793,-1.180391009832383,-53.03103523158625,-57.73371676093412
1537.405262860281,-1.201852383047438,-53.12806238364107,-60.11915866048697
1570.335625338007,-1.216751725200899,-53.50744016522023,-66.62775369418428
1603.971337796716,-1.233859747697265,-51.99835243624732,-65.22163752998163
1638.327508439235,-1.258274318341181,-53.59144003754301,-62.94364733971435
1673.419569077666,-1.270105085723363,-53.43292437236247,-68.37943247315069
1709.263282064918,-1.284346118949502,-52.50368625325095,-69.69253705937645
1745.874747374691,-1.311049984715239,-53.09621805335041,-71.16241858194286
1783.270409833135,-1.331787046497579,-50.7380327114658,-76.18430786922831
1821.467066505405,-1.351469373700976,-52.31502954217721,-69.92571325542607
1860.481874240405,-1.369564522187729,-51.12838344904315,-79.13195887737817
1900.332357377163,-1.389241416747446,-51.48508555261473,-79.10324139371484
1941.03641561628,-1.40820655010118,-51.56640236726343,-83.03115055317707
1982.612332059933,-1.431801852369038,-51.28117914199081,-76.88789638908328
2025.078781424159,-1.449352557032821,-51.50282525295967,-79.26707672006901
2068.454838426975,-1.467711726505236,-51.40067258030633,-88.05500768124372
2112.759986356212,-1.488962014267117,-50.79423046444055,-86.86758022348214
2158.014125820852,-1.503549347046885,-50.00424371876385,-84.62935931751323
2204.237583689811,-1.536922380724501,-50.63335222237187,-93.70045798383792
2251.451122222194,-1.548204888954418,-51.4041364938783,-87.70040418131009
2299.675948393094,-1.573914147154187,-51.92251118118634,-95.50668307021982
2348.933723419184,-1.593797509238955,-50.34977647432945,-95.03644140561194
2399.246572488303,-1.610803369309644,-49.99973458355613,-97.66249632396436
2450.637094697454,-1.635054572534609,-50.08937514476951,-103.1634175466836
2503.128373203692,-1.651938059706481,-51.18897727517815,-101.323024965665
2556.743985592407,-1.678992398026747,-50.60732836755355,-104.2485953444331
2611.508014467701,-1.694437214814856,-50.78926893790104,-101.0847049633658
2667.445058269619,-1.717259402337026,-50.33124108967321,-110.2764872160943
2724.580242323056,-1.739078678259945,-49.68230726555618,-112.24721853726
2782.939230123342,-1.752156896670362,-50.02682543042927,-122.9798476905889
2842.548234863546,-1.772745707547237,-49.61273715802419,-117.5826987924179
2903.434031208703,-1.797704129695089,-50.6614648610516,-123.4398011012748
2965.623967322229,-1.819709090391288,-49.56016427745968,-132.3553175932606
3029.145977149923,-1.829594680363394,-50.06849116371512,-129.0514132887945
3094.028592967117,-1.859729056242907,-49.60432055099963,-127.7581860337078
3160.300958194555,-1.871681111670682,-49.45981820005719,-132.2637374904775
3227.992840488783,-1.891463386337539,-49.80339221150183,-137.7974207962924
3297.134645112921,-1.912032961450536,-50.60340385935703,-140.0802518349015
3367.757428593864,-1.931149761485031,-50.03639585582648,-142.9339961141517
3439.892912671974,-1.94967916987667,-49.76447885822795,-142.8472454613363
3513.573498549581,-1.967663710824162,-49.61150079320468,-154.1854733465849
3588.832281444676,-1.983381378284556,-49.36165523991856,-146.3273398150953
3665.703065456351,-2.004966541398847,-49.40644860880943,-119.9281756074304
3744.220378748634,-2.026062583235607,-49.5077294518725,-128.0710048871909
3824.419489059534,-2.048838312027192,-49.28831421205587,-159.552871631217
3906.336419542335,-2.061594809406507,-49.41309414609591,-162.1547734871022
3990.007964946156,-2.080135471712291,-49.28344321552591,-133.5560124663362
4075.471708143087,-2.101473195962756,-49.15030226604052,-167.5693071074513
4162.766037009369,-2.115103991543605,-49.58636118500335,-104.6854753094765
4251.930161668121,-2.13429827992901,-49.55807498822776,-104.173575038243
4343.004132101412,-2.147844265975628,-49.07477873312843,0.7182317273025773
4436.028856139559,-2.16575358182703,-49.12938344382595,69.52836556145478
4531.046117835777,-2.192575424072524,-49.23391703167776,32.49067514417924
4628.098596234379,-2.202302020655462,-49.59303724139971,130.6365541088427
4727.229884540964,-2.225436995848661,-49.45024961060603,131.7380175459754
4828.484509703277,-2.233694862874004,-48.93467567858259,168.471520922518
4931.907952411419,-2.258326283109862,-49.60313880843366,131.4501316760969
5037.546667526489,-2.273336561510924,-49.44620264611669,119.8565963311632
5145.448104946764,-2.28896014565433,-49.88331547344919,120.9599131832524
5255.660730920867,-2.312096142301368,-49.7716964679696,156.5625820354335
5368.234049817411,-2.326927914132407,-49.24519434155429,147.6317983373416
5483.218626360933,-2.347430430523641,-49.59980875905848,147.56605113412
5600.666108344157,-2.363747639702442,-49.84997541351824,142.4751553898406
5720.629249826698,-2.38179292922639,-50.25117643526129,139.8304977419667
5843.161934830659,-2.393654569363261,-49.50939320133201,144.8972418679746
5968.31920154383,-2.408900912924808,-50.18088490746756,143.164771067109
6096.157267041259,-2.442306753229899,-50.67178524271871,138.7600560887046
6226.733552536361,-2.452557601566309,-49.64252717058017,129.6939942924626
6360.106709172869,-2.466969479894133,-51.01860030297552,126.1039247026861
6496.336644369291,-2.504523577867177,-50.16050554584659,127.0845944665697
6635.484548727598,-2.505190147335894,-50.39745852826449,120.3005400429075
6777.612923518275,-2.516591920094247,-48.86375827287954,121.230197493366
6922.78560875415,-2.54481050900022,-50.49562421114535,118.8822917502728
7071.067811865488,-2.564963368826207,-50.28590634203688,115.1862161050473
7222.526136989285,-2.587838136136949,-51.67189833645543,116.2958582571355
7377.228614885992,-2.596754701722942,-50.44426722700024,111.5674300292473
7535.244733496967,-2.617666378540134,-50.62103596317687,105.4941969178404
7696.645469156483,-2.642529288670605,-50.61324556215185,111.0591391827036
7861.503318472251,-2.649052878011476,-50.51314980846658,103.6697822048302
8029.89233088887,-2.679384683572251,-51.49114860002594,104.9004627971199
8201.888141948706,-2.690701355082267,-50.95804390419579,110.6353835463548
8377.568007265194,-2.721225311346544,-51.04326371485609,100.8998287580422
8557.010837223905,-2.726429298249069,-51.10476671596865,105.7647429609588
8740.297232426808,-2.758512965208731,-51.44346692601157,100.1625024674405
8927.509519895782,-2.766312055252134,-50.55613077290182,98.54761258823031
9118.731790051532,-2.794937145058833,-51.37412386704241,98.54099527694748
9314.049934484652,-2.808696715070936,-51.43504886775134,98.9001413445102
9513.551684535661,-2.824953915862498,-50.77048512276286,101.0206212125674
9717.326650701387,-2.841602814774865,-51.09935482575079,91.28179882683307
9925.466362885505,-2.863683707490028,-51.14649784337402,87.6820230337506
10138.06431151113,-2.888599567697647,-51.76991278886598,89.69252508145833
10355.21598951402,-2.902313851851395,-50.84263366175669,80.99178808729381
10577.01893523534,-2.927817018784473,-52.06454267723802,82.6540894537878
10803.57277623305,-2.9415287482354,-51.91630977095957,82.15848291249218
11034.97927403182,-2.959272090360372,-50.63520408553117,84.57091765440944
11271.34236983131,-2.985707710690494,-52.70020933310381,94.60569343613474
11512.76823119371,-3.001775580213023,-52.86966450696806,81.59643108402911
11759.3652997311,-3.028053002447439,-51.55079982850949,77.0489843445541
12011.24433981434,-3.041271501074235,-52.02813251547137,89.37440455169971
12268.5184883253,-3.063140337567543,-52.40063671796945,61.76641048599053
12531.3033054747,-3.086581458957353,-51.98440605557822,78.52733234122294
12799.71682670847,-3.105466565184095,-50.64461969995346,90.03234257070794
13073.87961572586,-3.118403871240243,-52.13293101182266,72.69824293413319
13353.91481863329,-3.142891523145976,-51.49619161023806,72.94158251222771
13639.94821925805,-3.160529749854688,-53.41249129273543,53.84528202739493
13932.10829564673,-3.182199746100849,-52.08743669214893,76.56829200060392
14230.526277774,-3.204423728520813,-51.26565727711888,73.65026367686707
14535.33620648734,-3.222781673348443,-52.27777608936022,57.31858333049578
14846.67499371431,-3.242180521400582,-49.89507165312632,70.67496328936183
15164.68248395956,-3.258955938248983,-50.78195060136874,76.91570605767966
15489.50151711896,-3.29984929997076,-50.3517905509241,74.88569123560681
15821.27799263921,-3.29803349388393,-49.48255620548871,64.35953762857432
16160.16093505169,-3.322202237268321,-50.78745870350662,69.42633851244929
16506.30256091006,-3.336570481766271,-48.96115945811814,65.67563354537403
16859.85834716162,-3.361181675452436,-49.90451098722146,66.62476812252143
17220.98710098302,-3.375740257799749,-51.09629433929724,66.07774696027765
17589.85103111202,-3.397127469455445,-49.1676501651035,67.93596850643388
17966.615820707,-3.405506999980826,-48.78810603447545,52.93582762270904
18351.45070176709,-3.44333132898358,-49.17140861318211,60.67578453010265
18744.52853114634,-3.441576157981042,-48.60150380788767,62.410896094027
19146.02586819613,-3.455706760057398,-48.11305972236278,63.50343788542656
19556.12305407065,-3.478694608426112,-48.29904816668498,61.9921776136125
19975.00429273085,-3.497376834113797,-48.45043255879388,66.91384117863593
20402.85773368371,-3.517006052706417,-49.43958526807444,65.42975168110658
20839.87555649364,-3.528818130760319,-47.61773310582879,54.72585872915928
21286.25405710405,-3.554025508088661,-48.14751785870648,46.77888112377802
21742.1937360078,-3.560282829992931,-47.51672268298528,37.91518720432308
22207.89938830645,-3.578197545863109,-47.95474512486123,54.46311935606606
22683.58019569833,-3.5900128226791,-47.47814244105346,50.55049553186704
23169.44982043686,-3.597299388092093,-47.38656823157608,51.555998699981
23665.72650130175,-3.61632611186119,-46.82377898386065,44.54933708333995
24172.63315162553,-3.61503169384583,-45.50022661091539,41.43790001065643
24690.39745941987,-3.626035978172702,-45.51431198942901,37.16945549467816
25219.25198964647,-3.636294231046473,-45.24369090512349,38.61515110480857
25759.43428867878,-3.621707512193616,-45.56800174106325,33.90174621889862
26311.18699100093,-3.620770219765663,-45.6079491770808,32.30400529794257
26874.75792819219,-3.629496610636669,-45.53897552177992,30.38164524860675
27450.400240246,-3.621918749764907,-44.98379032115996,25.54775956125619
28038.37248927307,-3.624373361959421,-45.51962290663699,25.97637313998737
28638.93877564026,-3.622561610440988,-44.51613107146954,18.63681231441395
29252.36885659674,-3.606300885767977,-44.13546914102058,19.02926558254075
29878.93826744147,-3.592181409230075,-44.12290560962452,6.579916618345027
30518.92844528567,-3.599814372151433,-43.44784430571711,9.299592732422587
31172.62685546631,-3.567918008171732,-44.05097919298981,1.818786667656699
31840.32712066748,-3.551959522686278,-44.12015587296501,0.01934531127289994
32522.32915280724,-3.544783247430037,-44.51788041165759,2.768883630452781
33218.93928774943,-3.528517137580265,-43.45557268322162,-8.689404044058687
33930.47042290118,-3.515990630316581,-43.89373319284232,-14.25175159306269
34657.24215775735,-3.501379320971977,-43.4340269157837,-16.26483015547471
35399.58093745563,-3.500545789583655,-44.01150323553314,-26.42956446046462
36157.8201994062,-3.491817993684521,-42.73440012112186,-39.35856050273086
36932.30052306253,-3.483693556905976,-41.88481850719427,-36.2366958236186
37723.36978289979,-3.49591067886902,-42.53559130968107,-49.2221901530714
38531.38330467035,-3.495638920633207,-42.85059310426352,-52.98574120653389
39356.70402500563,-3.490933145202243,-44.4982137780368,-84.12697968934627
40199.70265443721,-3.528832312369045,-44.90652830512148,-58.79421987219575
41060.75784390931,-3.528680915735515,-49.58829562903929,-95.93432106695847
41940.25635485791,-3.553684176971361,-48.00358135655752,-32.63381299657439
42838.59323293314,-3.587006874736172,-51.11762310295962,-42.8688228930789
43756.17198544241,-3.607430535582907,-48.30916356618634,-17.23633743946807
44693.40476259428,-3.621529751800263,-52.34238364108607,-30.13360989091925
45650.71254262483,-3.639955798913434,-50.63441084067128,-26.29375521462908
46628.5253208889,-3.664478913175153,-51.96902489372501,-15.39954288525162
47627.28230300184,-3.700052533604977,-48.95104592171067,-45.9263467060711
48647.43210211794,-3.707452204045854,-50.91207854536261,-39.7867501212137
49689.43294043497,-3.731060726334558,-49.05418546559819,-18.28099451514912
50753.75285501438,-3.766144946669133,-50.14588174839979,-16.99084955107793
51840.86990801002,-3.790776308007797,-47.15795144420817,-30.85269991273077
52951.27240140039,-3.821087011246896,-47.99690200095131,-26.95325912740967
54085.4590963197,-3.847643423882755,-46.83631584747098,-33.92040792003127
55243.93943708728,-3.872613514688466,-47.84745036769857,-34.69073115711701
56427.23378003521,-3.916587606934745,-45.78957362856624,-34.40156736296278
57635.87362723792,-3.933460183970425,-45.49537132142936,-48.25178946152151
58870.40186524752,-3.958092139387406,-47.33992581930003,-59.96377401475166
60131.37300894284,-3.995432659471692,-45.83280195470816,-58.11909922557513
61419.35345060204,-4.029313900539138,-46.36743145521292,-67.63731034881246
62734.92171430973,-4.068033713104651,-43.91690662328553,-57.0973648882248
64078.66871581318,-4.092240036733713,-44.27450637027405,-69.60328574351506
65451.19802794535,-4.133760002092748,-44.04694087579712,-92.31997390833125
66853.12615173226,-4.172419716679202,-45.19584883460644,-83.08830716837367
68285.08279330778,-4.199989723060826,-44.93910992975099,-80.46161554651096
69747.7111467595,-4.225694369418271,-43.61094248936741,-91.99880648515934
71241.66818303343,-4.288722249956533,-42.12815822206144,-91.9876677481097
72767.62494502655,-4.306402262674385,-43.64755936627365,-97.30800135296373
74326.26684899985,-4.330143556359372,-46.27369471658417,-108.5655846681359
75918.29399244821,-4.364676267975157,-45.0071503410384,-98.82552325981609
77544.42146856396,-4.376530608164703,-44.09901316856391,-116.6030677874577
79205.37968743649,-4.430452078000112,-43.45114432676462,-118.6694078099479
80901.91470413134,-4.469476188377194,-42.90080166452867,-113.5184964139643
82634.78855379723,-4.49543927240773,-42.68067754429304,-129.0537037436976
84404.77959395046,-4.531429083291973,-42.41828475083261,-133.4474465819383
86212.6828540905,-4.565658511089682,-44.2244418183219,-117.8353757927049
88059.31039280516,-4.601781195752977,-41.75443487592708,-59.31133663722414
89945.49166252385,-4.624995879354569,-41.86850841963073,-125.8057799807698
91872.07388208374,-4.667095988274465,-42.88410743453145,-125.7135155876339
93839.92241727677,-4.683559588333052,-43.77842893667897,-134.5043132356684
95849.921169547,-4.738572522378661,-43.12347800028766,102.2959581466747
97902.97297301404,-4.783109071575638,-43.13271350798555,1.619204558001084
100000.0000000001,-4.802171318423015,-42.62707455926554,28.69964891796263
102141.9441752439,-4.826183177138662,-43.19561569139984,63.65349364664651
104329.7675989865,-4.849586169241107,-42.99185133334274,30.25989921819431
106564.4529791185,-4.898498561764447,-43.55161181661954,93.32692497440092
108847.0040725852,-4.912817731945044,-43.53272356877545,90.25163603299809
111178.4461362454,-4.961373748894939,-43.00636657554157,48.912966842973
113559.8263873875,-4.990678491721383,-43.10001604232797,143.5881617948504
115992.2144741091,-5.008531445437945,-42.85362284848265,85.67562419634392
118476.7029557737,-5.062298637480541,-42.60474815181332,138.0068615565595
121014.407793756,-5.07308063625767,-44.35167448028043,114.2342019659032
123606.4688527002,-5.11677957272,-43.15495540598281,122.9035279458666
126254.0504125152,-5.151970517671469,-44.85914701489124,122.6498734904747
