#Digilent WaveForms Network Analyzer - Bode
#Device Name: Discovery2
#Serial Number: SN:210321B213B5
#Date Time: 2024-02-15 03:01:35.308
#Start: 500 Hz
#Stop: 2e+07 Hz
#Steps: 501
#Wavegen: Wavegen C1
#Amplification: 1 X
#Settle: 10 ms
#MinPeriods: 16 
#Channel: Channel 1
#Range: 5.51697 V
#Offset: -0.000289588 V
#Relative: no
#Channel: Channel 2
#Range: 5.57616 V
#Offset: -0.000284749 V
#Relative: yes

Frequency (Hz),Channel 1 Magnitude (dB),Channel 2 Magnitude (dB),Channel 2 Phase (deg)
500.0000000000009,-0.6768870202874173,-47.0105398382275,-7.078325006643674
510.7097208762208,-0.6810046313788652,-46.49816797294254,-13.07568035278013
521.6488379949326,-0.6808780740386224,-47.08578814330003,-13.68600131350528
532.822264895593,-0.6867845064293556,-46.54735044139829,-10.56407553188699
544.2350203629271,-0.6961473078498719,-46.53870529201498,-8.655359507377364
555.8922306812275,-0.7051172574575748,-47.55271028368636,-9.548280926001352
567.7991319369378,-0.7066361045486745,-47.54856487088393,-14.79404043775735
579.9610723705468,-0.7099922378835664,-45.73745766251298,-7.201680367419081
592.383514778869,-0.7255164055080671,-46.7328299491474,-4.94220422100083
605.0720389687805,-0.727745606327284,-46.24189898869555,-10.92878817723509
618.0323442635009,-0.7210540330156888,-46.00277905813164,-7.133870086328078
631.2702520625768,-0.7400178997249811,-46.16407433392547,-11.18107598263897
644.791708456679,-0.7467461036903547,-47.38681572342978,-5.868064220792772
658.6027868984215,-0.7487235094507469,-46.6901561748957,-9.114865278040895
672.7096909303867,-0.7584406489887185,-46.59660204960147,-9.489180610511443
687.1187569715719,-0.7617306635050975,-46.42243886246781,-14.64369242420688
701.8364571635318,-0.7779829414018115,-46.69183243349161,-12.58759483331197
716.8694022774847,-0.7718189346248788,-45.88922615006079,-8.224347101606231
732.2243446836735,-0.7888305029873701,-45.9329222265071,-16.53873349851923
747.9081813843421,-0.7933747269014311,-46.67712668118048,-14.9831380924823
763.9279571116773,-0.8101685384194511,-46.41080989366488,-8.001083233408931
780.290867492091,-0.8175089851617789,-45.99893526571406,-8.303980940560297
797.004262278297,-0.8137758244242683,-46.1958910243176,-14.12300037930807
814.0756486506131,-0.8311055876552331,-46.67986686209274,-14.25022086284582
831.5126945889645,-0.8322577577526264,-46.29125216800396,-8.338538340885446
849.3232323171252,-0.8449662713174102,-46.46292222390676,-6.757606928496083
867.5152618207356,-0.8578215137635881,-46.48478618999312,-17.96638176045189
886.0969544406555,-0.8657554511656252,-46.48875166987408,-8.355004705801985
905.0766565433113,-0.8768279126255862,-46.44958873974711,-9.610417906476775
924.4628932696336,-0.8893976344769428,-46.54210465267103,-17.62990561322113
944.2643723643124,-0.8998966710010723,-46.04734542519786,-16.59075792257206
964.4899880870739,-0.91493352185313,-47.25398970759506,-12.50140260886746
985.1488252077163,-0.9284352234926456,-47.23328178261193,-7.853623750728339
1006.250163086735,-0.9321570390884992,-46.76643265197987,-16.04217797384918
1027.803479843355,-0.9382452118062612,-46.34949220687809,-4.80712115525556
1049.818456612814,-0.9527967805271689,-45.94057370602413,-8.800223097417637
1072.304981894866,-0.9719857871913264,-46.85465278280962,-11.76189857871962
1095.273155995412,-0.986558173501949,-47.25052918864223,-9.822784318529667
1118.733295563266,-0.9874917372714732,-46.25167903779325,-10.28368934771728
1142.695938224099,-1.001866554822397,-46.59974016356431,-15.31108703164871
1167.171847313637,-1.01653965074941,-45.42622825731146,-22.92018028860717
1192.172016712258,-1.038690950401068,-45.75772205821197,-19.08456880821264
1217.707675783115,-1.047433962127887,-47.6917037953436,-12.30296391232719
1243.790294416048,-1.063547251923513,-46.87022937490965,-15.65788482880313
1270.431588179542,-1.06653338912024,-45.65758668872263,-19.00955589573672
1297.643523583014,-1.089234313801034,-46.23993367843444,-15.17526505021696
1325.438323451828,-1.087612975014894,-47.78685778122523,-19.29476406316305
1353.828472417455,-1.110475228699952,-46.43256304030875,-20.93065550629269
1382.826722525193,-1.12355581693033,-46.31282518971874,-19.1435579110937
1412.446098962038,-1.141231800034357,-47.03774743325663,-16.73943901115714
1442.699905907216,-1.141874991061135,-45.8334465857152,-21.03584775510892
1473.601732508043,-1.165731947619987,-46.19834627049216,-19.66827257366996
1505.165458983793,-1.188148441950319,-46.94755753201019,-22.66994251042441
1537.405262860281,-1.209464368541989,-47.88587440584352,-21.28992970232616
1570.335625338007,-1.212347397819606,-46.66802357150961,-33.92832268858172
1603.971337796716,-1.230194344554362,-45.590214494924,-33.15167500583978
1638.327508439235,-1.234338368565555,-46.66656775891212,-24.7720868692438
1673.419569077666,-1.250247002822004,-46.75605216568386,-35.03840651369411
1709.263282064918,-1.278162597259673,-47.5731375335371,-28.6761457523031
1745.874747374691,-1.303001078438442,-47.72101041596208,-32.78531613520653
1783.270409833135,-1.301578565272845,-47.31882029850631,-34.27342836205761
1821.467066505405,-1.315729084352317,-47.45813213937453,-31.74277377026275
1860.481874240405,-1.321664617476567,-46.55374704258097,-32.61712801058242
1900.332357377163,-1.345669519548833,-47.06172017225371,-35.2623943608045
1941.03641561628,-1.355715519125764,-46.69180743416617,-21.08114373246694
1982.612332059933,-1.376374807942175,-47.75804150834616,-28.27449913013606
2025.078781424159,-1.390927136872993,-47.49224076629464,-37.69619495575735
2068.454838426975,-1.418412167569431,-45.41937397607411,-29.5435514340918
2112.759986356212,-1.424769610646565,-46.60698831230987,-47.17966905496564
2158.014125820852,-1.434944601384026,-48.49606363374996,-41.2046588299288
2204.237583689811,-1.447003676768971,-47.07856039507304,-46.31714309599762
2251.451122222194,-1.480332065345138,-47.69554470853894,-39.963985344931
2299.675948393094,-1.491175995597831,-47.27482053846082,-35.48706826399145
2348.933723419184,-1.508359589801787,-48.54211129433886,-62.25612062240924
2399.246572488303,-1.527793773783922,-48.78703532855913,-40.97664213157055
2450.637094697454,-1.547899839435258,-47.90846900405487,-60.91667934496893
2503.128373203692,-1.555171029944061,-48.98466406476071,-46.2865848009135
2556.743985592407,-1.558315470595379,-48.11662688086724,-54.26736483750769
2611.508014467701,-1.57086901729782,-49.25601303244222,-64.31127262820137
2667.445058269619,-1.587226114858362,-48.17759618601838,-57.6307529383572
2724.580242323056,-1.621837179891045,-48.41942279023588,-68.40748866427043
2782.939230123342,-1.622421546911463,-48.7445202998326,-64.39854615533451
2842.548234863546,-1.639874569092757,-52.22069062414558,-50.19873601923908
2903.434031208703,-1.658776195821284,-51.97410253685739,-77.31273183018348
2965.623967322229,-1.652349211134549,-49.40150693724548,-58.23145772742107
3029.145977149923,-1.684758779937959,-50.12556123030382,-74.79505510051162
3094.028592967117,-1.710297744181308,-50.05160866654541,-82.70759858186692
3160.300958194555,-1.70532756363225,-50.07759173755381,-78.10810878649731
3227.992840488783,-1.720561867477638,-51.58048381715901,-68.63039924772713
3297.134645112921,-1.73803695186258,-54.36709416731787,-32.27026129410704
3367.757428593864,-1.751777342876666,-51.11866188606487,-96.99081866062883
3439.892912671974,-1.762502370131949,-53.37298127123263,-39.13523263440871
3513.573498549581,-1.778392023418898,-54.80966583162402,-109.9105439886933
3588.832281444676,-1.787628850215156,-51.95471917531453,-79.51321048786993
3665.703065456351,-1.792681211596221,-52.88663978152901,-88.63925042177313
3744.220378748634,-1.81442362611965,-53.76994665226418,-84.55829180814987
3824.419489059534,-1.84912805675663,-55.98222384192667,-24.36238124418437
3906.336419542335,-1.851200164324132,-58.33744658060236,-34.06762227987619
3990.007964946156,-1.848086042970931,-57.22264061036849,-18.37993031487825
4075.471708143087,-1.875834532357086,-52.97940377076127,2.717187385915568
4162.766037009369,-1.889554134765113,-56.37802272973665,-40.92894249945096
4251.930161668121,-1.886732428112629,-56.53659528340272,-19.00173837626932
4343.004132101412,-1.900719841624235,-56.32341702033607,15.25651751293629
4436.028856139559,-1.903892433576263,-55.04577406242895,28.50301303215995
4531.046117835777,-1.934958422488694,-55.15490201598625,41.79410282983783
4628.098596234379,-1.944377878326019,-55.633775383035,37.42570454435605
4727.229884540964,-1.962566059713335,-53.00514979557663,64.05989177185722
4828.484509703277,-1.963662489139884,-51.57505042302164,69.29536267767718
4931.907952411419,-1.980378478074372,-56.7058247566609,0.3131581171717926
5037.546667526489,-1.977854514140731,-54.4800161090383,53.82794673041394
5145.448104946764,-2.007788620170388,-53.83482026519629,65.4967903765464
5255.660730920867,-2.0175232641565,-51.45571733343928,81.62043623888563
5368.234049817411,-2.031882122019186,-53.24348963798903,69.58353998979848
5483.218626360933,-2.048304273392991,-52.79178611064825,113.3159094786628
5600.666108344157,-2.044829381563797,-50.36091691836926,97.18634230961894
5720.629249826698,-2.064931797550956,-51.03592096341356,76.48597849524801
5843.161934830659,-2.066570894412137,-52.10290922688615,98.12127639708726
5968.31920154383,-2.085512274320878,-52.10898374149917,66.32914773698016
6096.157267041259,-2.107251213884734,-49.15846965992382,53.61983703154317
6226.733552536361,-2.11448274945386,-50.82062544480387,82.54699257271507
6360.106709172869,-2.121640738514143,-53.2325473823328,67.90779723191329
6496.336644369291,-2.147835301001022,-51.59424581846233,67.04129458972076
6635.484548727598,-2.141852348345285,-48.34845310255419,61.70343021727241
6777.612923518275,-2.150897785652475,-50.90142051884762,66.6762976358488
6922.78560875415,-2.175152162880954,-49.08807598826793,54.76534785911777
7071.067811865488,-2.194882704428572,-49.1977935153775,85.00909276865019
7222.526136989285,-2.211401121783511,-49.0362947090488,44.24186139409741
7377.228614885992,-2.215176492005933,-48.64220658349871,84.42037416045142
7535.244733496967,-2.235589879487355,-48.03471513581654,73.49709508633651
7696.645469156483,-2.232305727289016,-47.32563160665421,58.79306272552414
7861.503318472251,-2.256441825308579,-46.23456527052106,80.60173170666032
8029.89233088887,-2.273590779121741,-46.87804494846081,52.24395311747814
8201.888141948706,-2.295731538997488,-47.92704063145499,65.29449993028012
8377.568007265194,-2.295100921243549,-47.8793784922346,49.82875231720898
8557.010837223905,-2.295952480970008,-49.57931060980273,68.28348010836504
8740.297232426808,-2.317027673615614,-48.24233352552228,59.65278142100946
8927.509519895782,-2.335556568607669,-50.05978628061953,35.33973277807232
9118.731790051532,-2.356186361133982,-47.4576220420428,68.06450156096308
9314.049934484652,-2.365059770413778,-47.87654582513582,71.03338471275923
9513.551684535661,-2.362420281525582,-46.89225673463404,63.28746717911652
9717.326650701387,-2.378727062294355,-46.47009559697394,30.32024468659729
9925.466362885505,-2.392180445809001,-49.40320119818874,51.67600785676609
10138.06431151113,-2.424085420854989,-47.5757029640695,41.14564171981728
10355.21598951402,-2.412753946350296,-48.0267635958672,31.89074639724575
10577.01893523534,-2.44501408375957,-47.65306687930413,46.08387608426217
10803.57277623305,-2.44812333042051,-49.07562599177481,43.02737228529369
11034.97927403182,-2.465720036163344,-47.54788992646959,68.07537134582381
11271.34236983131,-2.481350885649663,-47.78976099411263,29.26714707631016
11512.76823119371,-2.475179471125001,-47.0479170872856,61.28497288597032
11759.3652997311,-2.504482495414682,-47.54092988979778,66.37313535983236
12011.24433981434,-2.510737852056128,-47.24571783175391,31.98873252961682
12268.5184883253,-2.535301426927985,-48.596043409724,52.73806120819188
12531.3033054747,-2.561134446969294,-47.13514706947621,52.2952137101494
12799.71682670847,-2.565471425277348,-46.21827146479809,34.18241646353594
13073.87961572586,-2.557974913584662,-48.21079267321741,20.97753103151105
13353.91481863329,-2.591022964983914,-47.11159673858621,62.87016055866245
13639.94821925805,-2.604433668391162,-46.7709832882782,49.16586507586395
13932.10829564673,-2.629105878890792,-49.27418501251557,39.37527758704037
14230.526277774,-2.619863022508099,-46.48118548756554,66.74369715634153
14535.33620648734,-2.637584282201639,-48.35358609082458,36.91564198735749
14846.67499371431,-2.654434070395697,-45.67091246537881,41.40207284963901
15164.68248395956,-2.652644322857529,-48.44745091854669,73.52981048769439
15489.50151711896,-2.692911393306541,-45.24949263806511,51.76321535395748
15821.27799263921,-2.690974419931629,-44.85174040288294,35.16505903922412
16160.16093505169,-2.704541917115159,-45.39858680066219,34.33647353209248
16506.30256091006,-2.709606963486152,-46.14245000926221,21.12904615521948
16859.85834716162,-2.732431874402393,-46.49842595286042,26.05346612332754
17220.98710098302,-2.745056358605806,-46.40740752047663,40.29704190725793
17589.85103111202,-2.775161236672068,-45.84987097174072,44.50213142292225
17966.615820707,-2.777452625098999,-45.78704009335026,59.8381391348757
18351.45070176709,-2.800209306186326,-47.37021108826906,23.37008058855635
18744.52853114634,-2.796494074758367,-45.67197464564204,60.87017769624701
19146.02586819613,-2.80716653633315,-43.83605663393133,34.36958297920137
19556.12305407065,-2.849260311558566,-44.83556926612535,64.62298238499086
19975.00429273085,-2.838060117039296,-46.22380188676887,17.58261996341055
20402.85773368371,-2.851530812283732,-47.5529245226052,60.89719650061453
20839.87555649364,-2.865928559094772,-44.75849917174986,32.69083504368539
21286.25405710405,-2.875833936362075,-44.23400512562765,49.5509521097443
21742.1937360078,-2.901541080947049,-44.76101491883701,27.97552486307563
22207.89938830645,-2.914351242695163,-42.663121495617,46.79024785559881
22683.58019569833,-2.915434507912061,-43.99464930099769,8.320146561367249
23169.44982043686,-2.917183251850419,-44.42635751568495,35.725562174076
23665.72650130175,-2.959917583659817,-45.0107858446123,35.73180504847245
24172.63315162553,-2.955606019845029,-46.29677132175486,32.73193580246603
24690.39745941987,-2.968653489104939,-44.56541955529634,33.3063913743368
25219.25198964647,-3.009539121354794,-43.54581158866989,30.17978252390782
25759.43428867878,-2.984921013563939,-43.19014036718976,29.84017371469728
26311.18699100093,-3.001584508367102,-42.86054033014581,16.94393961082124
26874.75792819219,-3.004559116964044,-42.41931706744347,22.37325000737938
27450.400240246,-3.027462983767125,-41.62893892477631,12.84007952359755
28038.37248927307,-3.027108576457276,-41.43246608930052,28.76808172383771
28638.93877564026,-3.043901915433056,-41.96078672041776,17.33185624588134
29252.36885659674,-3.068657752749063,-42.25244661712566,27.00454048469733
29878.93826744147,-3.055178254014232,-41.80276204699766,10.60092972305106
30518.92844528567,-3.044577360247085,-41.0438686973771,17.27629404211232
31172.62685546631,-3.071574817781829,-39.95662913791207,16.52098969475106
31840.32712066748,-3.070522901436258,-39.42090877634789,5.699872109886089
32522.32915280724,-3.057575260940106,-39.96597132296974,-7.322305378346291
33218.93928774943,-3.092769952224254,-41.3013416570228,-5.460818161418717
33930.47042290118,-3.077976381146252,-43.08310036566951,0.4787134056080362
34657.24215775735,-3.059575026258037,-41.27286846584101,-27.47423142357318
35399.58093745563,-3.091129805388828,-42.6596592531881,-24.99983690042019
36157.8201994062,-3.079593786024489,-41.4405240117344,-20.27914276420857
36932.30052306253,-3.030267317404054,-39.1629546884508,-44.23811325100495
37723.36978289979,-3.038753059927937,-40.72664867613571,-39.95662711485407
38531.38330467035,-3.02327169751401,-43.09939295360947,-54.82855243987821
39356.70402500563,-3.047600043114144,-42.1159287202909,-63.29873716055719
40199.70265443721,-3.054287692472641,-46.35243127620004,-50.22239828841273
41060.75784390931,-2.958923926727495,-45.2219553977323,-35.63943314977473
41940.25635485791,-2.999602647882009,-44.21445421958822,-17.63203120560557
42838.59323293314,-2.97163670788252,-45.19924386331866,12.77752335891846
43756.17198544241,-2.941390723947202,-46.50733460060242,-39.31006627056964
44693.40476259428,-2.963613279310547,-44.26024700696905,13.52630160194665
45650.71254262483,-2.967846824294278,-46.55915860366501,5.222180148801693
46628.5253208889,-2.958100752427442,-45.86828573583082,4.79000244812462
47627.28230300184,-2.980222397382728,-46.06209530182872,-4.330262049409112
48647.43210211794,-2.973665061800789,-46.95762602289709,-21.37201518875069
49689.43294043497,-3.006085879457896,-43.05805277356639,-14.33670615260699
50753.75285501438,-3.025744595736156,-44.55405108356325,-15.00297624013403
51840.86990801002,-3.034093326030691,-45.78825384179645,8.156761409062954
52951.27240140039,-3.037442191895793,-45.38695945658244,-1.145184079782348
54085.4590963197,-3.101227486027445,-41.70432571050629,-17.94075621829319
55243.93943708728,-3.129922166413268,-44.0458647953734,-25.89527408142225
56427.23378003521,-3.164751494999364,-47.19831788667523,-39.39585881806365
57635.87362723792,-3.179080989624929,-41.41569496320464,-15.38806904700725
58870.40186524752,-3.242923479244531,-43.09967872346091,-14.85418415983627
60131.37300894284,-3.248728361672067,-42.45414637116191,-27.2934302285489
61419.35345060204,-3.308046496110231,-41.33274815476369,-54.37902730498714
62734.92171430973,-3.384133472359539,-43.47356984904329,-13.10302800499745
64078.66871581318,-3.385947270386765,-44.72247342475266,-46.31873693489442
65451.19802794535,-3.441012909719305,-42.39326553694725,-43.78149425587564
66853.12615173226,-3.500169620882938,-42.65836611705816,-33.73833398720916
68285.08279330778,-3.533136819042483,-41.4386532366733,-56.55288365453995
69747.7111467595,-3.566526898333544,-43.43523996478356,-112.6859361711269
71241.66818303343,-3.607847134741731,-42.08845086524198,-79.228130220544
72767.62494502655,-3.675575293403322,-45.932499520085,-50.40058818361415
74326.26684899985,-3.712525973788467,-40.95737789825952,-19.16885491177042
75918.29399244821,-3.783436014852428,-41.13568646149075,-51.91241687456866
77544.42146856396,-3.820845567020965,-42.0051143039833,-81.94765795386647
79205.37968743649,-3.834029665460732,-41.74908677082557,-92.17143355466958
80901.91470413134,-3.828141809545386,-40.5670999394059,-115.3975045524576
82634.78855379723,-3.92237968573885,-41.20683335429128,-93.89895632658076
84404.77959395046,-3.955229158910285,-42.37829722867647,-61.4346445496479
86212.6828540905,-4.005297323202512,-42.60418793284572,-109.5136174139721
88059.31039280516,-4.051808981142219,-43.78304026458881,-50.00903554408305
89945.49166252385,-4.081997768512396,-44.25197762381821,-3.122257074334397
91872.07388208374,-4.128424257130388,-42.73140737983788,-76.36051274282993
93839.92241727677,-4.207655474361347,-41.78758471972198,-25.27723593299686
95849.921169547,-4.202401817470569,-41.56762285374892,-15.35475364538448
97902.97297301404,-4.281274435919863,-41.02194366035965,-16.53277013135797
100000.0000000001,-4.32879202193741,-41.3561225939847,62.87917808220868
102141.9441752439,-4.372712415887659,-39.33803627809343,84.74377765122347
104329.7675989865,-4.380001914185845,-40.52970638660621,56.98103692632934
106564.4529791185,-4.445614067530707,-40.26654014013805,49.55551861971042
108847.0040725852,-4.494873304867537,-41.31158723744321,89.93358847505007
111178.4461362454,-4.532299656561142,-40.82709592204683,91.56288614471688
113559.8263873875,-4.58572535896588,-42.38558333963294,72.72977450803747
115992.2144741091,-4.65987779025118,-40.09209911406455,113.5344565237804
118476.7029557737,-4.662693713198106,-38.54126487070451,83.23919909015947
121014.407793756,-4.707676816532372,-40.07726879734149,59.89485639333726
123606.4688527002,-4.769302280395376,-39.12334638835246,64.59936026910883
126254.0504125152,-4.830193334493426,-38.72428480445058,85.84488115530033
