#Digilent WaveForms Network Analyzer - Bode
#Device Name: Discovery2
#Serial Number: SN:210321B213B5
#Date Time: 2024-02-15 03:15:16.159
#Start: 500 Hz
#Stop: 2e+07 Hz
#Steps: 501
#Wavegen: Wavegen C1
#Amplification: 1 X
#Settle: 10 ms
#MinPeriods: 16 
#Channel: Channel 1
#Range: 5.51697 V
#Offset: -0.000289588 V
#Relative: no
#Channel: Channel 2
#Range: 5.57616 V
#Offset: -0.000284749 V
#Relative: yes

Frequency (Hz),Channel 1 Magnitude (dB),Channel 2 Magnitude (dB),Channel 2 Phase (deg)
500.0000000000009,-13.79396359667031,-60.34893644672023,-120.3444986037667
510.7097208762208,-13.9307171863576,-60.55422994171455,-119.063969609366
521.6488379949326,-14.04351612724061,-60.64026781356566,-118.0786295306688
532.822264895593,-14.15230708072442,-61.25260847161881,-116.6208845927037
544.2350203629271,-14.25837968825464,-61.19346365660525,-121.5552966091363
555.8922306812275,-14.35967570508399,-61.17336900989014,-117.5383869746811
567.7991319369378,-14.45829776214725,-61.61746418798351,-118.6022640452922
579.9610723705468,-14.55934359352721,-61.22434948513676,-117.1372286271843
592.383514778869,-14.65825395500144,-60.9983318496033,-116.0227689662615
605.0720389687805,-14.7570887289448,-60.94024668581839,-113.1004251285367
618.0323442635009,-14.85385612823392,-60.66411853697111,-114.0761425745076
631.2702520625768,-14.95433149721481,-60.65345160580262,-116.1565123404178
644.791708456679,-15.05169331583689,-60.57729659585878,-111.157980073272
658.6027868984215,-15.15173101100735,-59.82935556339842,-114.5852434913591
672.7096909303867,-15.25088241492343,-60.18346305057572,-115.6291032692691
687.1187569715719,-15.35083373461425,-60.35182392617449,-117.391705267739
701.8364571635318,-15.4507557201072,-59.58667516526138,-113.7170831432873
716.8694022774847,-15.54999282391941,-59.56363757495718,-109.3084468797095
732.2243446836735,-15.65076626905144,-59.2961072581469,-113.8304070302469
747.9081813843421,-15.75253598982113,-59.74143721279319,-112.7307985317131
763.9279571116773,-15.85296165532094,-60.12605447196641,-113.1362984948637
780.290867492091,-15.95302211330767,-59.59773712131543,-109.9484126965831
797.004262278297,-16.05518750745018,-59.78407595780918,-108.8204747320084
814.0756486506131,-16.16124407558446,-60.25979118083232,-107.9018548198735
831.5126945889645,-16.26431322891395,-60.02054656131591,-108.6657692062965
849.3232323171252,-16.36962858354888,-59.48927235989122,-108.3699882335675
867.5152618207356,-16.47566860754583,-59.11169156230603,-107.6585756171182
886.0969544406555,-16.58048372076023,-59.34097401266271,-106.8115252165633
905.0766565433113,-16.68443189063443,-58.75390340824698,-107.3638248871051
924.4628932696336,-16.78908831933467,-59.10384662073686,-108.6086431878734
944.2643723643124,-16.89406210260298,-58.65689259329817,-104.0614208328188
964.4899880870739,-17.00013911184882,-58.67441180246885,-104.4481713238955
985.1488252077163,-17.1048618931095,-58.47577342517181,-108.1771433137784
1006.250163086735,-17.21119234527306,-57.45208700649685,-105.4492344466197
1027.803479843355,-17.31796743376792,-57.48525483268998,-110.0168887314454
1049.818456612814,-17.42245471387008,-57.30281978293991,-105.2500469743538
1072.304981894866,-17.52818147760509,-57.38708870116989,-104.9962956669424
1095.273155995412,-17.63376534039997,-56.41327451855631,-106.3242272648039
1118.733295563266,-17.73799467009003,-57.19170633418648,-105.8160145457581
1142.695938224099,-17.84223081633611,-56.88633087376861,-101.5225188626221
1167.171847313637,-17.94773109116879,-56.25307613952159,-105.0688199456994
1192.172016712258,-18.05241361160911,-55.7826935460851,-102.5840081710343
1217.707675783115,-18.15621976302845,-55.9686565450458,-105.7569129356258
1243.790294416048,-18.25925789051804,-55.6662325102367,-104.0226764847049
1270.431588179542,-18.36343378619935,-55.55459624656181,-107.0563552414769
1297.643523583014,-18.46518363124157,-54.95250893631968,-104.9376881594722
1325.438323451828,-18.56549110747608,-54.73362645025006,-106.8781533802602
1353.828472417455,-18.66666148992038,-54.66258732145058,-104.5366978068944
1382.826722525193,-18.76620843417764,-55.11698646224669,-102.5237165365675
1412.446098962038,-18.86545596982843,-54.97915687183361,-104.7450815389011
1442.699905907216,-18.96377048507023,-54.67786635097988,-102.4638808119988
1473.601732508043,-19.0624989327269,-54.7067099462395,-107.8666777497162
1505.165458983793,-19.15981106685375,-54.67608969037438,-108.3922643231206
1537.405262860281,-19.25628875830844,-54.24948624779808,-108.1463564040271
1570.335625338007,-19.35183586938185,-54.15981665055882,-105.4680606154605
1603.971337796716,-19.44663990983203,-54.30032833374633,-108.4108694529069
1638.327508439235,-19.54187979241657,-53.37101226505201,-110.6474432250666
1673.419569077666,-19.6340904268841,-53.4660923349722,-106.4539423909876
1709.263282064918,-19.7264479946014,-53.10123591583586,-109.941247349572
1745.874747374691,-19.81813167396351,-53.09609585905471,-112.4375887832079
1783.270409833135,-19.90835171631861,-52.80477885944801,-114.5054817672685
1821.467066505405,-19.99667158103661,-52.47051406023877,-114.0760317526092
1860.481874240405,-20.08495369223143,-52.17406670922195,-115.5002473966761
1900.332357377163,-20.17105618672465,-52.28449384059618,-115.6239355481684
1941.03641561628,-20.25836240980096,-51.36177749791259,-117.9369826633898
1982.612332059933,-20.34300070706567,-51.4200605241689,-120.2635920334601
2025.078781424159,-20.42480634106423,-51.34371490213061,-118.5638087768058
2068.454838426975,-20.50710476943972,-50.86430882735524,-122.605819665577
2112.759986356212,-20.58769946751544,-51.06962775227813,-123.4032615227779
2158.014125820852,-20.66827351963806,-50.073234874703,-122.8910007494
2204.237583689811,-20.74688366234494,-50.25664246734746,-126.665107044899
2251.451122222194,-20.82409791666496,-50.47299729089781,-124.9248683993321
2299.675948393094,-20.90079966535706,-50.29545604509746,-131.501730133924
2348.933723419184,-20.97451309547841,-50.05534931541331,-129.5121108077713
2399.246572488303,-21.05006372840732,-49.37076288749323,-131.1934569636659
2450.637094697454,-21.1216834928726,-49.61650316141753,-133.8097257975829
2503.128373203692,-21.1921291288293,-49.46028585816322,-134.5226921804093
2556.743985592407,-21.26167373091637,-49.38071287364562,-134.8549190644166
2611.508014467701,-21.33112968174394,-49.12502922921809,-136.3638346381256
2667.445058269619,-21.39911147674744,-48.84963706034224,-142.4741865478099
2724.580242323056,-21.46682334189329,-48.51732287330893,-144.0845197797056
2782.939230123342,-21.53092874079461,-48.32578152438172,-142.2120403448086
2842.548234863546,-21.59504238148552,-48.27844030751262,-144.9367395957583
2903.434031208703,-21.65956565248852,-48.09929999310359,-145.4983344899728
2965.623967322229,-21.72333052044763,-47.90316889987202,-146.6963134641676
3029.145977149923,-21.78196956377806,-47.69533600412133,-151.1720181904346
3094.028592967117,-21.84295376442032,-47.72922946630558,-149.8970713689109
3160.300958194555,-21.90204450175022,-47.81789708068636,-154.055146159007
3227.992840488783,-21.96117557643215,-47.51278190398409,-157.1066114518529
3297.134645112921,-22.01786323148384,-47.52395789925238,-157.1887023698704
3367.757428593864,-22.07550103211113,-47.43439763786347,-159.4081811183833
3439.892912671974,-22.13088444728289,-47.32385029278112,-163.0519499594285
3513.573498549581,-22.18485270705307,-47.67781251593171,-164.654786734186
3588.832281444676,-22.24044539555619,-47.27194977846341,-166.7942018434538
3665.703065456351,-22.2933639095614,-47.12605135012502,-168.4672825659345
3744.220378748634,-22.34628764623947,-46.89706947775448,-168.7802958715244
3824.419489059534,-22.39873096416889,-47.07448899901939,-135.6744246962747
3906.336419542335,-22.4500747189385,-47.17177724912862,-102.3745925937144
3990.007964946156,-22.50051931743402,-47.25100033043121,-140.1535026699925
4075.471708143087,-22.55165775281125,-46.91069505986648,-35.07225102139368
4162.766037009369,-22.60113376304953,-47.10703090993538,-71.0833060223416
4251.930161668121,-22.65110583048731,-47.22472296158707,105.4338314682029
4343.004132101412,-22.70054704672147,-47.26639219822766,172.8602900274712
4436.028856139559,-22.75063954285605,-47.12269623959283,174.3978253364608
4531.046117835777,-22.79772629266986,-47.1768480357583,173.3195455320703
4628.098596234379,-22.84358036080132,-47.42130419374504,168.7262495467029
4727.229884540964,-22.88919311482056,-47.12809141622269,166.0183935640147
4828.484509703277,-22.93635569103094,-47.0515506809429,163.2420945737641
4931.907952411419,-22.98225781340012,-47.37666410705565,164.8553806813192
5037.546667526489,-23.03005487183256,-47.35414294288654,159.3346564200091
5145.448104946764,-23.07518861180375,-47.54247119279538,159.9732770383677
5255.660730920867,-23.12262181320394,-47.6835730540362,157.2991096363277
5368.234049817411,-23.16669640685538,-47.69073590660841,155.0405184070003
5483.218626360933,-23.21358689445495,-47.63573242209829,151.0300627470918
5600.666108344157,-23.25831200944272,-47.7105120615531,147.2706976974733
5720.629249826698,-23.30690608830738,-47.96893035309598,151.5969632541602
5843.161934830659,-23.34534561212816,-47.76266902467741,143.418960635354
5968.31920154383,-23.39188175199649,-48.00052628027441,146.3737600828613
6096.157267041259,-23.44881868079451,-48.90629860215495,141.8407703447247
6226.733552536361,-23.47975121719838,-48.19349826595293,138.9036411763017
6360.106709172869,-23.52356078864092,-48.34784667759899,137.9314806780489
6496.336644369291,-23.58446190837348,-49.26283838673231,138.5674634173627
6635.484548727598,-23.6113949565343,-49.13671434351112,135.0004227431157
6777.612923518275,-23.65674199778748,-49.07067062410979,133.0206438628458
6922.78560875415,-23.70655313838249,-49.50012759963832,133.7920613430175
7071.067811865488,-23.74215584007156,-49.29119877918645,126.228554421212
7222.526136989285,-23.793729663615,-49.37267148896429,132.0691638445974
7377.228614885992,-23.83069952326256,-49.51557576537618,126.7296517161493
7535.244733496967,-23.87292958927688,-49.88454024308414,126.3571348243505
7696.645469156483,-23.92214228815167,-49.66924190004654,124.6769476603673
7861.503318472251,-23.96024865401564,-49.82999815178975,124.6455279747904
8029.89233088887,-24.01403231029075,-50.43129581962059,125.8596358189477
8201.888141948706,-24.04778012176174,-50.84134388934341,120.1340485098897
8377.568007265194,-24.10439934794978,-50.77814834300783,117.5640567671619
8557.010837223905,-24.13419811716236,-50.98336744758935,121.1965177578039
8740.297232426808,-24.18875891641778,-50.32761998230625,113.6906190864215
8927.509519895782,-24.21829361672222,-51.33331240283066,113.9801843819043
9118.731790051532,-24.2671141007506,-51.3986694640563,108.5770136246482
9314.049934484652,-24.30448090739258,-51.32644180148397,115.5228183627648
9513.551684535661,-24.35086371552833,-51.73308758603353,115.9217388460552
9717.326650701387,-24.39005973394391,-52.66826276935043,114.878257569275
9925.466362885505,-24.43001012461337,-51.42771689091508,112.6766532165383
10138.06431151113,-24.47694690442969,-52.20429575917528,110.2924658215321
10355.21598951402,-24.51667534169398,-52.49481152115784,102.7692153074734
10577.01893523534,-24.56993089632823,-51.55625183817288,115.0584730132866
10803.57277623305,-24.60055192367701,-52.98971565936319,107.80497994767
11034.97927403182,-24.64269578271582,-52.47729023318294,103.5801107261666
11271.34236983131,-24.68844062860514,-53.25475327608268,108.6342044261731
11512.76823119371,-24.72418123886067,-52.25831998664856,102.4435735094996
11759.3652997311,-24.7680338941778,-53.32009977651514,111.3694763770865
12011.24433981434,-24.80485437852551,-53.20968631759612,102.8732567015793
12268.5184883253,-24.84294944057403,-53.26900948124635,109.2803604803472
12531.3033054747,-24.88602657735078,-52.16967864573267,110.2437045638442
12799.71682670847,-24.91925381096022,-52.57567375272626,106.3299924558685
13073.87961572586,-24.95508618410878,-52.58120243939345,94.60357681517989
13353.91481863329,-24.99605257628582,-52.09208950013934,100.5092108107011
13639.94821925805,-25.02876230683489,-51.77725032619054,100.8802013274145
13932.10829564673,-25.06464752773304,-52.63258401592469,96.64195925799504
14230.526277774,-25.10046828022158,-51.96164923401285,98.55620140772869
14535.33620648734,-25.13376835083855,-51.9794014774902,107.0845792865143
14846.67499371431,-25.16790587207716,-52.71801307043282,95.70829156665752
15164.68248395956,-25.20386700156103,-53.93334182932949,93.55049606202003
15489.50151711896,-25.25306944295055,-52.04576030297275,96.50736271839875
15821.27799263921,-25.27344886144728,-52.14814453523644,91.28286600187502
16160.16093505169,-25.30680424524165,-51.93470400265149,82.57907380677177
16506.30256091006,-25.33725166691405,-51.69097229576991,89.82926852710571
16859.85834716162,-25.3742709043347,-50.96118566627935,94.63472597997828
17220.98710098302,-25.39731563435118,-51.60170988326328,90.73121369947361
17589.85103111202,-25.42228311191993,-49.7669900940209,82.04369305522395
17966.615820707,-25.4540977775404,-49.88277146491468,80.43972362743573
18351.45070176709,-25.49507862180664,-51.02485724539644,80.23789840650655
18744.52853114634,-25.50537886318369,-51.53320393591035,81.61421256772169
19146.02586819613,-25.52705629589335,-51.48838032754716,79.40548555598818
19556.12305407065,-25.54823826490008,-50.70175111603773,77.60270283397311
19975.00429273085,-25.56793085967936,-50.26343269757047,67.67796524660129
20402.85773368371,-25.57545046018099,-49.81662039384317,56.09868746359562
20839.87555649364,-25.58127470674739,-50.68569282917383,77.61695909232785
21286.25405710405,-25.59545008770553,-49.41960850286061,58.1771675662733
21742.1937360078,-25.60139737054312,-50.17471141054366,68.74997167424907
22207.89938830645,-25.60485211650002,-49.7824170359478,58.64673454441375
22683.58019569833,-25.6024757820898,-49.12100356881588,51.87610287640105
23169.44982043686,-25.59985294896111,-49.53141569636398,49.31062064707038
23665.72650130175,-25.6006743679736,-49.34326965119696,48.50405737181141
24172.63315162553,-25.57965627516096,-48.42222951789207,46.57108447098677
24690.39745941987,-25.57203649042269,-47.67927237378689,37.25917328728197
25219.25198964647,-25.56481940790944,-47.55953919090842,43.70873565074817
25759.43428867878,-25.53920610804052,-48.05335132234038,36.1319241583337
26311.18699100093,-25.51604490841829,-47.41977811279281,32.40687180469028
26874.75792819219,-25.5050930260074,-47.14915273636851,31.61777151048972
27450.400240246,-25.47673910617781,-47.53714810607347,26.9230563647946
28038.37248927307,-25.46011613993821,-46.85348460163765,21.47054697211065
28638.93877564026,-25.4469111014574,-47.20429679686173,10.82680973578069
29252.36885659674,-25.42709033854944,-45.9352765837193,16.89715158838943
29878.93826744147,-25.41087446445104,-45.81275416973367,9.714299535448896
30518.92844528567,-25.41547362754608,-45.45517311032309,1.306752516464691
31172.62685546631,-25.38952505509868,-45.76663563894209,-1.284719902881787
31840.32712066748,-25.38913168421948,-45.28027004966568,-8.572395577286523
32522.32915280724,-25.39219532531067,-45.15830059478212,-12.25792577608595
33218.93928774943,-25.40200575057425,-44.27084983188077,-15.18471265251108
33930.47042290118,-25.40835455121272,-44.4038118563102,-19.38981253720675
34657.24215775735,-25.41552620195583,-43.15210615806653,-26.58027477398831
35399.58093745563,-25.43730871811536,-43.038967779555,-35.07237644399153
36157.8201994062,-25.45072779439199,-42.80012550764991,-40.06121706898184
36932.30052306253,-25.46869645996047,-42.53994379055634,-52.11338209141704
37723.36978289979,-25.49944223109321,-42.88948651748228,-58.11178040816021
38531.38330467035,-25.5140360039519,-42.854901753753,-70.40199344250011
39356.70402500563,-25.5421470270784,-42.9483760608081,-89.46796729308329
40199.70265443721,-25.58332340091992,-43.66514595193792,-98.00319787878135
41060.75784390931,-25.61830664210693,-45.5604651703385,-113.176066238686
41940.25635485791,-25.64819395978715,-47.39169129328641,-75.88021753084276
42838.59323293314,-25.68247646852033,-46.56445103339046,-75.76402459007173
43756.17198544241,-25.71801320407167,-51.20586160511171,-50.67262797817517
44693.40476259428,-25.79402385197653,-48.80534768191786,-58.86747003335083
45650.71254262483,-25.80338712933631,-50.80225709973023,-103.0730119486123
46628.5253208889,-25.81659192905472,-53.96222737985238,-68.73841542964713
47627.28230300184,-25.86204614111075,-51.68033795789945,-61.71368506470793
48647.43210211794,-25.87524380104396,-50.34959786800292,-43.51837602810556
49689.43294043497,-25.89596602819164,-49.79667204411786,-42.5681883922236
50753.75285501438,-25.93131929222883,-48.97325738596357,-46.93365974610434
51840.86990801002,-25.95565913424103,-48.83409246085034,-47.35439007607029
52951.27240140039,-25.98188537446669,-49.16034254666027,-45.46624336359383
54085.4590963197,-26.002906228386,-47.28067068755327,-51.54037237416271
55243.93943708728,-26.0321266456747,-46.86159714827066,-70.0993890535171
56427.23378003521,-26.07230504221015,-46.62598725738021,-60.56017161976403
57635.87362723792,-26.08051623634016,-46.22502845276995,-61.72423369832958
58870.40186524752,-26.10553700650726,-44.55798064784485,-72.58085794186256
60131.37300894284,-26.12473968716755,-45.14020496132939,-68.91738499176925
61419.35345060204,-26.14642610080821,-43.69348407015354,-74.10422592371017
62734.92171430973,-26.18095186765065,-43.38624835993425,-83.96467832965052
64078.66871581318,-26.18378694927548,-43.13653175639955,-89.3406075160777
65451.19802794535,-26.2037485050106,-43.49192863463367,-89.11204527165042
66853.12615173226,-26.22858402724999,-42.24726387552544,-88.75103686665813
68285.08279330778,-26.23002094934768,-42.64105437245288,-96.58154513852803
69747.7111467595,-26.24557687189476,-42.76940807259549,-99.21984374389528
71241.66818303343,-26.27085771852682,-41.37552446565263,-106.3429639647064
72767.62494502655,-26.26975362027413,-41.86261911586129,-105.082584027072
74326.26684899985,-26.27856969197328,-41.31060468846777,-112.3623620368272
75918.29399244821,-26.28847580364025,-41.10985248959651,-114.4347568375689
77544.42146856396,-26.2943883188079,-40.6128929161116,-120.7452221365426
79205.37968743649,-26.3134348980562,-40.31739479093302,-126.7606034924213
80901.91470413134,-26.30927494185871,-40.470954344757,-130.6572223339362
82634.78855379723,-26.30238043549276,-40.71452053087202,-132.9313893961278
84404.77959395046,-26.30804428540277,-40.22826955943935,-143.7743299849014
86212.6828540905,-26.30582256272171,-40.07109447882782,-143.7316810730894
88059.31039280516,-26.30695246920686,-40.24595772457872,-154.1133567780512
89945.49166252385,-26.29584079987317,-40.95689713728974,-156.7116415917146
91872.07388208374,-26.29754097034515,-41.06720573542464,-165.2401069961199
93839.92241727677,-26.27970547472535,-40.88520626377672,-165.9173298721874
95849.921169547,-26.27772176490744,-40.17345891935722,-98.15591084773891
97902.97297301404,-26.25876025687302,-41.62522168842042,-97.76847939665456
100000.0000000001,-26.24352175003497,-40.84526928494615,0.477752575440283
102141.9441752439,-26.21411667436764,-41.28474980579042,-1.165657100474542
104329.7675989865,-26.20387136694976,-41.01573652282692,135.518356740172
106564.4529791185,-26.19826058286752,-40.94659564062529,171.2563569741652
108847.0040725852,-26.16610958315326,-42.21857523020405,164.643885882141
111178.4461362454,-26.14815144210014,-41.20473390125159,162.0515668953497
113559.8263873875,-26.12860088829069,-41.9632260177849,122.328164980466
115992.2144741091,-26.09191641613834,-42.44137407751229,127.5563084147288
118476.7029557737,-26.06830816844936,-41.59073765105236,148.8174392322415
121014.407793756,-26.04135832936052,-43.9605443683977,141.6586029881083
123606.4688527002,-26.01298035658072,-43.83192291861396,141.9926189148851
126254.0504125152,-25.98055579480199,-43.18826988439629,141.9748887085612
128958.3416913357,-25.86135888892357,-44.17763011242584,138.1524482332212
