#Digilent WaveForms Network Analyzer - Bode
#Device Name: Discovery2
#Serial Number: SN:210321B213B5
#Date Time: 2024-02-05 22:00:20.578
#Start: 1 Hz
#Stop: 2e+07 Hz
#Steps: 501
#Wavegen: Wavegen C1
#Amplification: 1 X
#Settle: 10 ms
#MinPeriods: 16 
#Channel: Channel 1
#Range: 5.51697 V
#Offset: -0.000289588 V
#Relative: no
#Channel: Channel 2
#Range: 5.57616 V
#Offset: -0.000284749 V
#Relative: yes

Frequency (Hz),Channel 1 Magnitude (dB),Channel 2 Magnitude (dB),Channel 2 Phase (deg)
1.000000000000002,0.003486428851430237,0.3782310354659405,-1.983204391256621
1.034194109919989,0.004728168003454582,0.4021775958230746,-2.069222820655483
1.069557456993193,0.003131527240805537,0.4306438535720705,-2.178948188007354
1.10613002224336,0.003326329564927894,0.4612929066644362,-2.29731927257572
1.143953153809745,0.001165985240625893,0.4966593217909639,-2.431700022881074
1.183069613694431,0.00183529126297939,0.5303410997229301,-2.582555210503379
1.223523626108092,0.0006378441052899269,0.5673555087224329,-2.733075832157887
1.265360927468933,0.0009725589622558207,0.6038823545192354,-2.896665753213574
1.308628818111262,-0.0003884575885137954,0.6427924016757194,-3.070199797194909
1.353376215762218,-0.001215400777265373,0.6829116421360382,-3.251333292813396
1.399653710847087,-0.001868945391096365,0.7241069652007949,-3.435741827722911
1.447513623685706,-0.002246635233383396,0.7655312550777287,-3.628519529949422
1.497010063644694,-0.003777473726867685,0.806412844464563,-3.837848161795435
1.548198990312284,-0.004817754736894111,0.848035236504179,-4.048661400132161
1.601138276765035,-0.005555691815613467,0.8907897535316051,-4.266208213985408
1.655887774997836,-0.004988902271900986,0.9314878800429982,-4.503005871413151
1.712509383591271,-0.007443920619830012,0.9742246232909979,-4.742045652189944
1.7710671176928,-0.008938908807176288,1.017604785868244,-4.995345026389927
1.831627181390858,-0.009113147496629694,1.059073380787811,-5.270542896595515
1.894258042563772,-0.0102048445868471,1.101829497626398,-5.556819159401613
1.959030510288013,-0.01223889315703264,1.145588661887867,-5.850481903282343
2.026017814893409,-0.01383915458811217,1.189490721641344,-6.160819741131888
2.095295690755726,-0.0156661871448425,1.234337709623478,-6.496351473115254
2.166942461920297,-0.0177868918243626,1.278306425475333,-6.836950413314071
2.241039130653486,-0.01936994243736597,1.322047765759621,-7.198213221384435
2.317669469022039,-0.02067512723749905,1.36712021347311,-7.585490039716191
2.396920113603975,-0.02354551873302876,1.413265451417898,-7.990341312924045
2.478880663437972,-0.02561836952067715,1.4585673088259,-8.412058287100514
2.563643781322099,-0.02870217413812383,1.504247134627539,-8.856891241452711
2.651305298576318,-0.03079403525575335,1.548905629819407,-9.328463619819132
2.741964323387274,-0.03452050894295559,1.595294579459318,-9.817134815308224
2.835723352857861,-0.03702834650029259,1.639691880649991,-10.33363725509852
2.932688388888149,-0.0416923588496363,1.685493951848379,-10.87003541413469
3.03296905801886,-0.04485775386171547,1.730594685185132,-11.43559662031275
3.13667873537267,-0.04879803815832667,1.774427681174301,-12.02122855165013
3.243934672833687,-0.05360729658960596,1.818431513046127,-12.6445531133144
3.354858131609812,-0.05854840633273472,1.861567547120888,-13.28489230191667
3.469574519328032,-0.06357458478460731,1.905773314665944,-13.95614670571607
3.58821353181752,-0.06858965097864626,1.947278748803684,-14.65118423076264
3.710909299740865,-0.07441800075624143,1.990087158611113,-15.38658250883384
3.837800540239305,-0.08055225307493211,2.029935211254381,-16.14143487818207
3.969030713763232,-0.08774873081760877,2.071604469792542,-16.92694514441528
4.104748186265447,-0.0947583125674358,2.111054110354567,-17.74079910760092
4.245106396940474,-0.1013640304299772,2.14967447376109,-18.58991957154839
4.390264031699487,-0.1105514650232021,2.189402930191494,-19.46940188782556
4.540385202577183,-0.1194244819254114,2.226150266163718,-20.39011205026844
4.69563963327318,-0.1290093496841638,2.263022573532249,-21.33899292584223
4.856202851037969,-0.1374392830700857,2.297964073773238,-22.33155821329697
5.022256385120114,-0.1475511258661174,2.332329600291238,-23.3524600325872
5.193987971999255,-0.1593000217263333,2.366559283281152,-24.41791341886471
5.371591767636888,-0.1711452006493645,2.399478435369706,-25.51487603511823
5.555268566984748,-0.1835388340373115,2.430689075506783,-26.65994669086241
5.745226030999271,-0.1966917988698915,2.461219420464405,-27.8434332519393
5.941678921418418,-0.2111276909206819,2.490451335563646,-29.0736009267939
6.144849343566667,-0.2261353503828584,2.518022834315184,-30.35763164938206
6.354966997462344,-0.2413735046276926,2.543512604693712,-31.68241099732742
6.572269437511447,-0.2596848505902195,2.568649012254122,-33.07402736981234
6.797002341081482,-0.2772554579132931,2.590621663031029,-34.51372729792752
7.029419786258816,-0.2964424944258113,2.610120678884,-36.01318639246166
7.26978453910388,-0.3173249978316949,2.627779421874977,-37.58514023338221
7.518368350728602,-0.3384994459724181,2.64241884676328,-39.224756124427
7.775452264532366,-0.3614351228091655,2.652202490097673,-40.94069500849226
8.041326933943395,-0.3847331906922674,2.65844411332574,-42.7384870578619
8.31629295102519,-0.4097512834418533,2.658375921547055,-44.61865362857297
8.600661186319355,-0.4342028882393583,2.65092181396139,-46.59732918640515
8.894753140308906,-0.4604842778664795,2.637377916609783,-48.69233034777902
9.198901306899776,-0.4885903134511402,2.615762316766949,-50.89396940175437
9.513449549330996,-0.515331691259787,2.584034526132298,-53.21517378180729
9.838753488939069,-0.5423174499478542,2.539976899602962,-55.67846284365322
10.17518090721551,-0.5693031669785833,2.483764473220527,-58.2837119696747
10.52311216161256,-0.5968463299298888,2.411542144494995,-61.07060929328786
10.88294061556709,-0.6232948163825252,2.323327707852518,-64.03476604788034
11.25507308322846,-0.6459072213585428,2.209202620030789,-67.19430438030203
11.63993028939385,-0.6656926421789118,2.064944298083286,-70.58618705554434
12.03794734517035,-0.6797223153751599,1.884365583327174,-74.24129136539105
12.44957423990212,-0.6873819428205177,1.668715942539685,-78.16668272138845
12.87527634991836,-0.6860589127986978,1.398282541177949,-82.44053576374029
13.31553496467765,-0.6760621940910989,1.058032444065065,-87.10208028324803
13.77084783090326,-0.6531996922385429,0.6317056908593822,-92.28493725304105
14.24172971532455,-0.6168004625605688,0.09311419616170985,-98.18161793768988
14.7287129866611,-0.5586922301025747,-0.6366604504406845,-105.0626657008445
15.2323482175069,-0.4684506607741163,-1.695993204229702,-113.6680580768158
15.75320480679584,-0.3132335574658557,-3.763998171371539,-127.402545999748
16.29187162355148,-0.03817529992275634,-18.77193755634494,-159.7888861108746
16.84895767264948,-0.03969733186297022,-19.40022632699007,-160.0242088649707
17.42509278334526,-0.03960285178535902,-20.21607222147692,-160.1793372168781
18.02092832134486,-0.04025781898009683,-20.98985253460187,-160.4240252428266
18.63713792522513,-0.04180730681388715,-21.68624138581736,-160.6469806372822
19.27441826803423,-0.0434991283031716,-22.38241152692102,-160.8410523393568
19.93348984493516,-0.04516338629266525,-23.04576096324315,-161.1141236160872
20.61509778778181,-0.04602744322511435,-23.68293001966479,-161.2641933434168
21.32001270754845,-0.04853335951890167,-24.27675240494732,-161.480687846297
22.04903156556588,-0.04987834622816686,-24.87596988368231,-161.5885032407262
22.80297857454805,-0.05304037520068966,-25.45800225146163,-161.7693403979687
23.58270613042925,-0.0556650528686747,-26.04726088647422,-161.8955424159547
24.38909577606389,-0.05814523086441771,-26.60375089947415,-162.0569985216781
25.22305919787965,-0.06197126942656269,-27.17813349527333,-162.1562063933297
26.08553925661029,-0.06405127736647048,-27.74868774081305,-162.2073387631638
26.97751105327289,-0.06736932752678418,-28.30846930147279,-162.3454167716255
27.89998303159616,-0.07238430116717755,-28.87189176709669,-162.510937565432
28.85399811814426,-0.0766296453984005,-29.40563774957006,-162.4498573677513
29.84063490142719,-0.08052070850676468,-29.98786302967401,-162.5732613525199
30.86100885132878,-0.08580500094940491,-30.54647199260001,-162.6241407410164
31.91627358023273,-0.08970628259324356,-31.08372737006537,-162.5757958801123
33.00762214727158,-0.09642214961722335,-31.60758370743152,-162.7945854570067
34.13628840717271,-0.1011202662790134,-32.21350627708255,-162.7316590891477
35.30354840522794,-0.1071631929480724,-32.72070700350249,-162.6352692730806
36.5107218199618,-0.1147219007690718,-33.29233437914363,-162.8627192673095
37.75917345513163,-0.1227067763884643,-33.8352434482596,-162.7048505641399
39.05031478274425,-0.1309890947685384,-34.39036489712359,-162.4332738812273
40.38560553883541,-0.1392414303040362,-34.9764655780339,-162.6176865715105
41.76655537381557,-0.14831198672629,-35.42386142630204,-162.473129226738
43.19472555924695,-0.1579900681400213,-36.00552616606674,-162.6490678355565
44.67173075298349,-0.1685391101098535,-36.56444991807972,-162.4548386475248
46.19924082466698,-0.1809777207508561,-37.02338837220716,-162.0787894326026
47.77898274364558,-0.1931444070148498,-37.67774684166521,-162.3650197157387
49.41274253144694,-0.2087082005907142,-38.18539069663073,-162.4264822706084
51.10236728101514,-0.2226225272383794,-38.76403162476343,-161.9772470079177
52.84976724499371,-0.2403822414018924,-39.23791625760698,-161.7887350303638
54.65691799541463,-0.2570972121402637,-39.72618398192952,-161.9711947953855
56.52586265723754,-0.2766282163937448,-40.38729376625441,-161.6064484533244
58.45871421826108,-0.297100081293871,-40.8409243860881,-161.6836032029506
60.45765791802138,-0.319568047961839,-41.28225538999332,-160.6289578071013
62.52495371837517,-0.3426797007461974,-41.98846530403106,-160.7097988332832
64.66293885856324,-0.3660145663043332,-42.52564673996334,-160.8030366325353
66.87403049764232,-0.3936454113555671,-43.0571436611728,-160.6580308768019
69.16072844727111,-0.420469425117985,-43.58739058622667,-160.3874632212946
71.52561799794347,-0.450451331815216,-44.14334511682749,-160.1480094196319
73.97137284185997,-0.4840007901355333,-44.8291538957949,-159.4980024659189
76.50075809574685,-0.5183145283199032,-45.1433049914595,-158.869983697355
79.11663342703514,-0.5616437516375823,-45.79769014415423,-159.1836346254861
81.8219562869383,-0.6211999146722865,-46.2655186356323,-159.4263159194244
84.61978525408223,-0.6925851337818318,-47.20723446270206,-160.3732453732907
87.51328349246582,-0.7772056966962503,-47.93450377769706,-159.6506867331674
90.50572232766615,-0.8735329310436825,-48.41125140010809,-159.8720907483447
93.60048494532599,-0.9821694207880891,-48.68544468713115,-158.9623268594798
96.80107021611053,-1.101069961000521,-49.50323063016957,-157.8138934499126
100.1110966514526,-1.231721581091369,-50.62345292007854,-156.3711862343283
103.5343064945625,-1.372377420849228,-51.77912564254679,-158.0621420268904
107.0745699513272,-1.521269355807991,-51.23601026708168,-156.472070333675
110.735889565878,-1.680838074902255,-52.37061057611094,-155.3088715032611
114.5224047457811,-1.85598637754522,-52.95837847314353,-156.1346352929183
118.4383964419593,-2.046695158557146,-53.03081667659801,-154.8010106613533
122.4882919886427,-2.245759180782563,-53.44843385865546,-148.0301594150143
126.6766701088137,-2.456257616425068,-54.04361031978745,-148.6110030012657
131.0082660908121,-2.674660877359162,-54.17082246101316,-148.2404849668665
135.4879771419482,-2.900681568019426,-55.37702112073625,-149.69327595525
140.1208679251764,-3.131695032174451,-58.09171590694732,-154.2705329101408
144.9121762850938,-3.366147734115144,-59.59791263221709,-150.5404425229773
149.8673191697305,-3.607655657233246,-61.28562885283286,-162.9818262573553
154.991898754834,-3.850848787914376,-62.06752687143961,-159.0489259850194
160.2917087775643,-4.09644362024483,-66.3515510790852,-157.6567026997776
165.7727410867665,-4.343967524569498,-68.21426079184928,167.0579113247118
171.4411924172249,-4.5922171333226,-72.90707627405054,143.1058322682482
177.3034713955527,-4.843059295892137,-67.56598798785866,75.64408244247332
183.3662057856475,-5.094987297803435,-68.41012836187768,55.68432285790922
189.6362499818928,-5.347535812087197,-64.84337570400972,39.89817336967456
196.1206927585873,-5.600672232587725,-64.17144816164293,51.48212153900465
202.8268652843584,-5.851307194946651,-61.22923389879023,46.62015818251236
209.7623494106177,-6.100706097399531,-58.99986005470124,50.8687019882768
216.934986243439,-6.349935678333422,-60.04506877974811,34.34553550210104
224.3528850085375,-6.601014002384672,-59.25690976404036,39.97379081275686
232.0244322193856,-6.850063531317331,-59.99263569671386,30.68237072682136
239.9583011588178,-7.097895022332798,-57.29410520547795,24.91137401598877
248.1634616848552,-7.344135134086855,-59.56675795242799,18.34607778187973
256.6491903718315,-7.58948331269475,-57.93315806075025,5.111960567442878
265.425080998281,-7.835768157253407,-59.45317646601532,27.72579504180791
274.5010553934576,-8.077112875544934,-57.91597130190618,7.125187194615933
283.8873746547333,-8.315939249348105,-60.23738368014768,-5.421752952519256
293.5946507485737,-8.555626932848586,-60.75228250050365,14.27484281891743
303.6338585081905,-8.794790806749278,-59.36084144774358,-22.70326766502786
314.0163480414487,-9.028370154391256,-62.18738596471225,-16.31262247311287
324.7538575630501,-9.258941281083068,-56.4873011017772,-30.00660399081366
335.8585266655001,-9.491265042322159,-58.15911771843277,-34.19555006416726
347.3429100438651,-9.714324435547198,-56.96290792590407,-43.37056036878997
359.2199916898322,-9.941229271266184,-58.57419150743038,-43.60822644545834
371.5031995711311,-10.15726776841915,-56.29188692525219,-27.1042678114343
384.2064208128932,-10.37713162910783,-55.20427065718027,-36.73285586678909
397.3440173981331,-10.59749826456733,-59.50495614869277,-42.630292856099
410.930842405094,-10.80671568016344,-54.51229840961811,-41.4030610283918
424.9822567998057,-11.01291313630412,-54.50290296203399,-48.29344778259515
439.5141468028623,-11.21710329573441,-54.11822439211932,-42.26492821036106
454.5429418500276,-11.42303765346605,-53.78116593876396,-50.23186482896857
470.0856331670016,-11.62455218268938,-53.18019451749015,-52.62582974538617
486.1597929793206,-11.8187331951001,-56.14750180377192,-48.6005940497239
502.7835943791325,-12.00486765930379,-52.97563705257824,-53.67729057881237
519.9758318712986,-12.19754904701255,-53.79901134730569,-59.73818132485685
537.7559426220412,-12.36853519262521,-52.07733831555785,-52.60411072905221
556.1440284341854,-12.56053356212313,-52.69655629979889,-74.78240042696092
575.160878473807,-12.72819553457883,-51.76233853688042,-44.92436997800542
594.8279927740165,-12.9076576318459,-53.8109427358927,-79.25984815040846
615.1676065424164,-13.06943895523356,-53.29306643386069,-69.3440435038643
636.2027152997415,-13.23651624958239,-51.41413407305503,-81.15787950222497
657.9571008780949,-13.38959952920736,-51.70790605640866,-61.71954520939096
680.455358308155,-13.54457263762314,-48.98170226750849,-79.24482749823227
703.7229236257881,-13.6779698746766,-48.93427578857376,-70.63082356416476
727.7861026294611,-13.83235968031194,-51.74443090234875,-64.17238837139308
752.6721006210117,-13.97534073906569,-50.07210479327497,-73.55461136731032
778.409053163354,-14.10697557003689,-50.79774726465853,-62.10494434094112
805.0260578899328,-14.24281202895593,-48.47146845520437,-78.49722689880804
832.5532074018747,-14.36666935305908,-47.96462217779559,-74.77157158433729
861.0216232900103,-14.49644965493013,-50.3659490690756,-87.88649827343886
890.4634913202743,-14.61842923306774,-48.27215338713214,-91.89663972442328
920.9120978222149,-14.73322772137021,-48.66488782502621,-91.70826574023677
952.4018673217895,-14.84732247544242,-48.00543855052542,-86.94298953350135
984.9684014609913,-14.95407992452552,-48.65763459657565,-82.28366998484944
1018.64851924826,-15.05287045580447,-48.11647617731662,-88.36304491014108
1053.480298685267,-15.15612952259454,-51.6140815070984,-100.9936599490331
1089.503119817049,-15.24167140372558,-48.29247444227893,-98.66809358709406
1126.757709254242,-15.34259194424404,-47.47850676224313,-97.28300237651756
1165.286186217674,-15.43840298696562,-47.06805590568802,-110.2502681689788
1205.132110157441,-15.50945372483611,-46.72755049271052,-100.9093682473916
1246.34053000027,-15.59018182250152,-48.16121305367225,-93.55355812317134
1288.958035080831,-15.67646137740227,-45.75699914702194,-88.69705349389602
1333.032807814635,-15.75056603741903,-47.50725186476555,-107.4413615302241
1378.614678171994,-15.84236367260001,-46.26441884486244,-106.5651593194542
1425.755180014715,-15.89186098353959,-47.07337122613512,-103.8841295568607
1474.507609359128,-15.96743271312512,-45.48417941738424,-106.7817004240167
1524.927084631408,-16.02885953594291,-44.1230947648959,-107.6039660913606
1577.070608983259,-16.09140530216785,-44.01379635779098,-110.80137649692
1630.99713473841,-16.15048380030613,-44.54593920446401,-114.5364410666644
1686.767630042839,-16.209301035313,-46.30627482769328,-126.3866767970775
1744.445147793996,-16.25893242033937,-44.62380132872512,-108.0742760318354
1804.094896927051,-16.31630955679839,-44.89672858938152,-110.5094731898467
1865.784316138662,-16.36507184650515,-43.7124659171927,-114.4987700878239
1929.58315013169,-16.42634609897168,-42.18261137048071,-119.8337331325872
1995.563528467048,-16.46863089513741,-43.08565049309625,-132.0283156577496
2063.800047111765,-16.5199165993423,-43.09707218624333,-132.5662412620029
2134.369852775576,-16.56520432483273,-43.69888728081125,-138.9730557212775
2207.352730131287,-16.60361628474849,-42.82168507962333,-145.7540327745743
2282.831192017577,-16.64769950271161,-40.96426623217727,-135.8864250627188
2360.890572726199,-16.67665954148666,-41.29379464588327,-135.6451760900482
2441.619124479056,-16.73034660655309,-40.40332935103052,-148.3686128330033
2525.108117204235,-16.75251845679164,-41.53253223638765,-145.4014630044809
2611.451941723765,-16.78756451859643,-41.13998072090786,-154.4246902805152
2700.748216469827,-16.83381152657296,-40.93208174153446,-156.2523434106377
2793.097897850002,-16.87368813240969,-39.849804326732,-158.0046176373563
2888.605394386365,-16.9105704534352,-39.51654044569927,-164.2808698485217
2987.378684757477,-16.9347108577123,-41.54861581365398,-161.9327015768619
3089.529439876696,-16.97550736539486,-39.58306025487244,-165.3035135777186
3195.173149144875,-17.00582474327894,-40.21300875852236,-165.3724079944197
3304.429251020122,-17.03098312917156,-40.04518291401034,-177.8187434280908
3417.42126805232,-17.06545762214844,-39.25883109643875,-179.6521018405129
3534.276946534998,-17.09818376093969,-38.89470717201404,176.1974543831319
3655.128400932487,-17.12097052300539,-38.62778395999727,177.7267049858326
3780.112263245634,-17.14968230893409,-39.52491072511199,169.6721812975958
3909.369837484941,-17.18578203397421,-38.68265015434382,168.9568518129528
4043.047259425782,-17.19892233087972,-38.16941678059855,163.4427280055977
4181.295661826284,-17.24350002685356,-38.88040331252096,158.1195784009854
4324.271345294731,-17.2680323401011,-39.45702185833937,158.6327625662078
4472.135954999584,-17.29773316903866,-38.61160686257204,156.4296104040165
4625.056663421959,-17.34588864589846,-39.58478906361849,149.693324265426
4783.206359357172,-17.38151441925152,-39.36436255632567,141.5971653645466
4946.763843379006,-17.40496964727503,-39.15858758007705,136.8773001284127
5115.914029987724,-17.43224205194799,-38.36701958088648,139.8791501090364
5290.848156670321,-17.47044309471453,-38.5120308296229,137.8924739302367
5471.764000109461,-17.49444513973738,-38.41703037277479,130.6901653435813
5658.866099785423,-17.52916518994233,-40.33253586326572,131.0504785760982
5852.365989223968,-17.56711516360716,-38.9106981675758,126.8910201319109
