#Digilent WaveForms Network Analyzer - Bode
#Device Name: Discovery2
#Serial Number: SN:210321B213B5
#Date Time: 2024-02-05 23:14:43.911
#Start: 1 Hz
#Stop: 2e+07 Hz
#Steps: 501
#Wavegen: Wavegen C1
#Amplification: 1 X
#Settle: 10 ms
#MinPeriods: 16 
#Channel: Channel 1
#Range: 5.51697 V
#Offset: -0.000289588 V
#Relative: no
#Channel: Channel 2
#Range: 5.57616 V
#Offset: -0.000284749 V
#Relative: yes

Frequency (Hz),Channel 1 Magnitude (dB),Channel 2 Magnitude (dB),Channel 2 Phase (deg)
1.000000000000002,0.00045048039207635,0.1767213391376166,-0.884691555316607
1.034194109919989,0.0009923233010013597,0.1884631452237328,-0.911487399799114
1.069557456993193,0.001423284580578729,0.2015147880773709,-0.9426233676915672
1.10613002224336,0.0007887684798078658,0.2155619094421038,-0.9888932125315364
1.143953153809745,0.0002686004252125956,0.231388418854663,-1.033362523730382
1.183069613694431,-0.001176999892954253,0.2477974087441205,-1.06974217174114
1.223523626108092,-0.0008141683070349591,0.265398880629124,-1.123803918757741
1.265360927468933,-0.0007343496490490322,0.284989676696189,-1.171039491361149
1.308628818111262,-0.0004663927588959704,0.3062310203039808,-1.227605485256896
1.353376215762218,-0.0001445161640789446,0.3295393615938447,-1.286778262626784
1.399653710847087,-0.0012749002535634,0.3526906119587075,-1.345148215782828
1.447513623685706,-0.001345719328800945,0.3790751557440943,-1.41065377131514
1.497010063644694,-0.00169254089960303,0.4083045248348485,-1.491101656532209
1.548198990312284,-0.002380956379668047,0.4402925710489741,-1.56581338941897
1.601138276765035,-0.002660964584783725,0.4728714334987938,-1.65701572607621
1.655887774997836,-0.003108153375886544,0.5094546018511323,-1.750605919611715
1.712509383591271,-0.003024853073045077,0.548834214007866,-1.848973348864519
1.7710671176928,-0.002975771229980623,0.590917355736205,-1.962535237554704
1.831627181390858,-0.004162058380857399,0.6365805356731509,-2.079691123517989
1.894258042563772,-0.004964438338087981,0.6865763619515558,-2.215741991798637
1.959030510288013,-0.004113584680036563,0.7383035127852768,-2.36826059706209
2.026017814893409,-0.006437181726735876,0.7964575183278362,-2.541663625078826
2.095295690755726,-0.005928787743788647,0.85755165011284,-2.742559163895862
2.166942461920297,-0.007074953571150721,0.9238083344360405,-2.985702797359096
2.241039130653486,-0.008976597927186809,0.9918516171231526,-3.252209901706209
2.317669469022039,-0.01043484061706522,1.062288591165078,-3.570036001419794
2.396920113603975,-0.01143812583023611,1.1314510528794,-3.901898530442622
2.478880663437972,-0.01092616791260555,1.196017442252306,-4.260939777695782
2.563643781322099,-0.01177330928776057,1.258973764393138,-4.632622299449345
2.651305298576318,-0.01476395437232972,1.317624458225463,-5.005781952479403
2.741964323387274,-0.01715822310432021,1.373933462884709,-5.39417692267539
2.835723352857861,-0.01790405683585726,1.426918128452027,-5.787701699346141
2.932688388888149,-0.02137901439148743,1.479194320268066,-6.186318248327819
3.03296905801886,-0.02223322107909189,1.531080099405243,-6.617514086114731
3.13667873537267,-0.02381634612685907,1.583290538549042,-7.049460790003792
3.243934672833687,-0.02536491854217689,1.635481278151913,-7.514046624120581
3.354858131609812,-0.02864882673673064,1.688752622851023,-7.986182888255655
3.469574519328032,-0.03137805861140716,1.745091200254979,-8.4759409232596
3.58821353181752,-0.03495395069276098,1.803226040062281,-8.967788739045176
3.710909299740865,-0.03789920610946237,1.863456494281839,-9.468064759811654
3.837800540239305,-0.03987302916182919,1.925117764544424,-9.969383294191005
3.969030713763232,-0.04367774576479862,1.991058594297146,-10.47634861822318
4.104748186265447,-0.04734727340691415,2.059553974670999,-10.98762982571869
4.245106396940474,-0.05272906081160821,2.130507522279195,-11.52516714770099
4.390264031699487,-0.05573033769669871,2.20190351835833,-12.07896596046782
4.540385202577183,-0.06025438721117161,2.275428235940142,-12.66849854063935
4.69563963327318,-0.06614154973524733,2.352057186295076,-13.27233626577181
4.856202851037969,-0.07243462321734286,2.428550259216039,-13.91018553118286
5.022256385120114,-0.0786752607497264,2.506357850893357,-14.58759755954961
5.193987971999255,-0.08556009773563578,2.584765575535737,-15.29581590591336
5.371591767636888,-0.09237804680548131,2.663226324639064,-16.03780892340943
5.555268566984748,-0.09805111797874043,2.740283038559143,-16.81049519870944
5.745226030999271,-0.1086712090558121,2.818795998514353,-17.6301779863007
5.941678921418418,-0.1199420610709337,2.89810210248075,-18.4869183883916
6.144849343566667,-0.1274689699560466,2.975430741304057,-19.37715854349577
6.354966997462344,-0.1390752212115044,3.054248722031289,-20.32363430865743
6.572269437511447,-0.150141968930797,3.13015314875336,-21.31553001666543
6.797002341081482,-0.1630476946443629,3.208263704606618,-22.34329736518373
7.029419786258816,-0.1753464864203401,3.284643660254852,-23.41872557574641
7.26978453910388,-0.1914556053887283,3.361582122378996,-24.53854818588907
7.518368350728602,-0.2076577571293726,3.436687557512197,-25.72733959693408
7.775452264532366,-0.2255772841643743,3.512319667742874,-26.95799264894927
8.041326933943395,-0.2432738308659525,3.585410393985531,-28.26446504480973
8.31629295102519,-0.2633343069833277,3.658479851104958,-29.6066744125508
8.600661186319355,-0.2854788125288693,3.730638302342027,-31.0366590027036
8.894753140308906,-0.3089935051361087,3.800636772653312,-32.51782912576607
9.198901306899776,-0.3338200128135182,3.868921828870286,-34.08135527457947
9.513449549330996,-0.359246310985391,3.935543810740565,-35.72127212179782
9.838753488939069,-0.3881945011001615,4.0003733866019,-37.45581463134471
10.17518090721551,-0.4196980352150437,4.061161948615004,-39.28732849454335
10.52311216161256,-0.4507623231549893,4.119050435173168,-41.20658258938411
10.88294061556709,-0.4855112398009265,4.172756082132427,-43.23240140197653
11.25507308322846,-0.5194241988201664,4.21941489439709,-45.39524392331145
11.63993028939385,-0.5599290032070843,4.263151049786549,-47.67653900397961
12.03794734517035,-0.5984233205228721,4.298399782865379,-50.10652190755136
12.44957423990212,-0.6408016384304428,4.325173694300895,-52.71560512159917
12.87527634991836,-0.6801535938866103,4.338317831408206,-55.48354409441986
13.31553496467765,-0.722998213644574,4.340942700264873,-58.45618852095804
13.77084783090326,-0.7638061034894701,4.324763376713707,-61.66959194983544
14.24172971532455,-0.8029951135110746,4.289030407741118,-65.11531008237225
14.7287129866611,-0.8414531165110141,4.229477633107145,-68.88336601476972
15.2323482175069,-0.8736116990615322,4.137353321381505,-72.97990671319812
15.75320480679584,-0.8985201577504108,4.002643737239765,-77.4811423328789
16.29187162355148,-0.9132511114901382,3.81496854820571,-82.47353494485135
16.84895767264948,-0.9141611809195843,3.554448712987504,-88.09438137096936
17.42509278334526,-0.8957342851167921,3.184437430332006,-94.54788444370331
18.02092832134486,-0.84360299145642,2.643071476218595,-102.2743229483786
18.63713792522513,-0.7405320151939826,1.764230231247947,-112.4438456695383
19.27441826803423,-0.4287611056328131,-0.9501244466806738,-136.4691978451211
19.93348984493516,-0.09756410979984032,-17.03513742736665,-165.8832058225923
20.61509778778181,-0.1005703661924231,-17.73206312840701,-166.3425250474148
21.32001270754845,-0.1056562950950918,-18.42641475061087,-166.6669282745967
22.04903156556588,-0.1115622482974506,-19.08798862675275,-167.0181138604891
22.80297857454805,-0.1153590785745033,-19.73641963556128,-167.2720992201852
23.58270613042925,-0.1219502284830859,-20.37915023959235,-167.6068479452703
24.38909577606389,-0.1282011182039989,-21.01082054835345,-167.8345611572704
25.22305919787965,-0.1341246147326337,-21.64583180458263,-168.1019326069994
26.08553925661029,-0.1434958745138432,-22.25599525345483,-168.2851650174722
26.97751105327289,-0.1506406405477781,-22.83678985775422,-168.5825079510589
27.89998303159616,-0.158788238437084,-23.41159270568932,-168.8058126186578
28.85399811814426,-0.1684463097551133,-23.9997453639488,-169.0670798107201
29.84063490142719,-0.1788987797843383,-24.5808408915911,-169.1585791258196
30.86100885132878,-0.187697808167636,-25.14973287524398,-169.3610936532275
31.91627358023273,-0.200154626312534,-25.69670264151789,-169.5350224487621
33.00762214727158,-0.2128833634339889,-26.26545386216998,-169.6605415712059
34.13628840717271,-0.2256591962144288,-26.80308824849106,-169.735878246811
35.30354840522794,-0.2381258088141678,-27.34747409095154,-169.8961468894144
36.5107218199618,-0.2526177696928305,-27.90477847257749,-170.0352337414745
37.75917345513163,-0.2690535382084845,-28.46257564929805,-170.175616901468
39.05031478274425,-0.2857699386982329,-29.01807157005503,-170.1782672603811
40.38560553883541,-0.3051133902074684,-29.60138196438649,-170.3631655767506
41.76655537381557,-0.3238283863134195,-30.16136107407232,-170.265009632907
43.19472555924695,-0.3450678970936722,-30.73406560221932,-170.3818535156114
44.67173075298349,-0.3678995238971433,-31.28837423798355,-170.4912917183426
46.19924082466698,-0.3913956882081854,-31.89196997771545,-170.4724441009182
47.77898274364558,-0.418506905033414,-32.42184589713994,-170.7219221659309
49.41274253144694,-0.4445167662161943,-33.00180490216383,-170.9056921626459
51.10236728101514,-0.4736407381233457,-33.58154672738097,-170.8584161818239
52.84976724499371,-0.5052648283421877,-34.14204087790211,-170.6443989551838
54.65691799541463,-0.5393667264751363,-34.65159229509958,-170.4880780860561
56.52586265723754,-0.575271502869258,-35.22849760731335,-170.6338730254759
58.45871421826108,-0.6133434149275596,-35.79400518580125,-170.5435782233655
60.45765791802138,-0.6521674379848563,-36.3314171868483,-170.5184600025234
62.52495371837517,-0.6964110952676626,-36.92202204902998,-170.2698473125532
64.66293885856324,-0.7417723244976113,-37.33875518664826,-170.2755309402498
66.87403049764232,-0.788310407143083,-37.92562649269232,-170.3625920449732
69.16072844727111,-0.8393428193666984,-38.55400126880809,-169.7811952372908
71.52561799794347,-0.8923368885459517,-39.22233259108352,-169.5641490694862
73.97137284185997,-0.9486186167581406,-39.56407321752606,-169.6332611436257
76.50075809574685,-1.008029122031973,-40.11739887204362,-170.1777211764727
79.11663342703514,-1.069047711115102,-40.75294408118052,-169.1377889237914
81.8219562869383,-1.133681640357057,-41.25793543801444,-168.6174073513615
84.61978525408223,-1.202267738210778,-42.03918390000218,-168.1394803136997
87.51328349246582,-1.286156155754884,-42.52856915005339,-169.2457872003605
90.50572232766615,-1.381513924226116,-43.13224799544641,-168.1201095821259
93.60048494532599,-1.49094887678501,-43.54924820100358,-167.9730786135588
96.80107021611053,-1.608741128622739,-44.09921184660654,-166.7764949289626
100.1110966514526,-1.736070671523812,-44.66859751354754,-167.4048703533753
103.5343064945625,-1.872901244589492,-44.97693569682197,-166.4438800392259
107.0745699513272,-2.017452756250744,-45.29235260447308,-166.8661301169489
110.735889565878,-2.169709341706965,-46.32630295405558,-166.3672841038012
114.5224047457811,-2.32966480540818,-47.11156756633205,-166.751146050278
118.4383964419593,-2.495576977751194,-48.10218279495157,-165.1281653939614
122.4882919886427,-2.668860219986935,-48.03489114247317,-164.4617962102098
126.6766701088137,-2.842196403587577,-47.90937294967129,-163.6086075181881
131.0082660908121,-3.024164221579648,-49.04652436186107,-163.0778704685769
135.4879771419482,-3.207102456833786,-49.35134741066149,-161.6143431235549
140.1208679251764,-3.396170333526296,-50.05726616396009,-159.5825421903621
144.9121762850938,-3.59280303023219,-50.16538833439675,-159.6692401204143
149.8673191697305,-3.792547253767624,-50.77692162763341,-158.5608207487492
154.991898754834,-3.996439165945406,-50.49915575044501,-157.0893149817723
160.2917087775643,-4.201178380386474,-50.89139866673435,-155.1012650536048
165.7727410867665,-4.409620947612319,-51.31203466333248,-153.7372556667245
171.4411924172249,-4.620165653215325,-52.29376942906937,-151.28086230153
177.3034713955527,-4.830589399959401,-52.35955594463783,-151.2898914798498
183.3662057856475,-5.042770360150586,-53.11765670634945,-154.6849566290476
189.6362499818928,-5.255538176131713,-53.60783487116046,-154.1820969429615
196.1206927585873,-5.46596155116296,-55.09732273690436,-150.5336935658606
202.8268652843584,-5.675622838456295,-56.39473058111221,-148.6714661810692
209.7623494106177,-5.881673924438243,-57.23182357195016,-146.3898105349815
216.934986243439,-6.089048071531655,-58.29285310710448,-140.5677852602414
224.3528850085375,-6.293044071814455,-58.18918747016718,-141.5141273190408
232.0244322193856,-6.496726302106508,-59.19258143502874,-132.8140133424985
239.9583011588178,-6.696723362204136,-60.52316070409404,-130.7176149775585
248.1634616848552,-6.893886297096784,-59.07670628816199,-141.3181231872735
256.6491903718315,-7.0871154517507,-64.0241280193124,-146.3209034109362
265.425080998281,-7.283229985104352,-63.50776322234449,-132.8583176285159
274.5010553934576,-7.4742943773738,-65.74518656967511,-120.6600836706772
283.8873746547333,-7.661589603763801,-64.70409678131017,-115.4996914642097
293.5946507485737,-7.846045673872394,-64.67160525353773,-122.2956151336657
303.6338585081905,-8.026729411664117,-63.96554847666125,-152.0687480542373
314.0163480414487,-8.203444660472476,-67.54205926663933,-102.8881906844029
324.7538575630501,-8.378022218779501,-92.374361891616,104.2630727697737
335.8585266655001,-8.547426088325688,-65.38793613050613,-98.24748495600865
347.3429100438651,-8.713262134691027,-68.84149582402132,-55.22140865567525
359.2199916898322,-8.87328231908343,-70.36322317214696,-68.3419919887458
371.5031995711311,-9.031526211779642,-70.76360877040786,-0.1077468237348853
384.2064208128932,-9.182572420302877,-71.04500325712404,11.78431349267585
397.3440173981331,-9.33413342577175,-63.86286597315379,-35.92290677359481
410.930842405094,-9.47910322531564,-68.17241752781533,-71.48529610799797
424.9822567998057,-9.617816275890021,-61.90111640517045,-25.70944671823663
439.5141468028623,-9.759975167805027,-67.68826489322974,-7.533130594959943
454.5429418500276,-9.891528641272826,-66.23446867581889,-27.05851974004386
470.0856331670016,-10.02402689689584,-59.58177803951435,-15.67996103510994
486.1597929793206,-10.14823667549157,-59.61454509211788,-8.251279945409749
502.7835943791325,-10.27378277031108,-61.28562248241502,-30.78116391709487
519.9758318712986,-10.39733448699295,-61.40439332424822,-20.42528494946154
537.7559426220412,-10.51125870339864,-60.14738822047743,-33.24917644939697
556.1440284341854,-10.62270755147066,-59.33247251643424,-30.49401766554702
575.160878473807,-10.72926208579785,-58.5393862419001,-17.57730645355599
594.8279927740165,-10.83751802579588,-58.97133666955802,-32.04296689878963
615.1676065424164,-10.93889511001095,-60.47222419084051,-20.15944279072373
636.2027152997415,-11.04484741551973,-63.99003915468153,-47.04994422208589
657.9571008780949,-11.12962074822585,-57.24147034993002,-22.0121575046781
680.455358308155,-11.22985736011559,-58.96067697869228,-28.25539568756994
703.7229236257881,-11.31927648840111,-58.28451120471675,-42.67025923252754
727.7861026294611,-11.40400294175141,-57.43181953952017,-35.89664915946452
752.6721006210117,-11.4890243549217,-58.40220287214144,-13.30844541004495
778.409053163354,-11.5743926367496,-55.18581378128544,-55.30212899415426
805.0260578899328,-11.65600951945484,-57.8982374592706,-21.98640191778614
832.5532074018747,-11.73439032690807,-58.43635046650746,-35.23031522704511
861.0216232900103,-11.81091414631828,-57.00304410408913,-31.99856446924485
890.4634913202743,-11.88349596798218,-54.48212543538348,-22.49501863134151
920.9120978222149,-11.9599647051492,-54.72532269105548,-44.1697824688001
952.4018673217895,-12.03797905473341,-58.62659656462708,-9.754461332297659
984.9684014609913,-12.10493838094208,-55.37302370107051,-53.70817288508728
1018.64851924826,-12.17396924416318,-55.4304235847768,-27.9288485722283
1053.480298685267,-12.24767669648642,-56.35890975841438,-46.350420755534
1089.503119817049,-12.31356990734241,-54.23501760757871,-42.72505529759547
1126.757709254242,-12.38257430950196,-54.24351079559539,-52.08805013021261
1165.286186217674,-12.45099783378836,-53.36620284325541,-66.74580684298461
1205.132110157441,-12.51493546823049,-53.5314235949154,-66.76510665403089
1246.34053000027,-12.58277796987574,-59.26351558005098,-80.33444851210601
1288.958035080831,-12.65263288391077,-54.54888381744355,-72.07493254031628
1333.032807814635,-12.71471722754446,-53.46549762152762,-72.59378658472197
1378.614678171994,-12.78121046108826,-54.49266419676225,-70.53612911388996
1425.755180014715,-12.84749650800586,-50.78714588671502,-56.3118234252759
1474.507609359128,-12.90110659119737,-51.52108010089768,-62.09493842235575
1524.927084631408,-12.97485421997115,-56.89240332491761,-73.68179797531513
1577.070608983259,-13.04366441045609,-53.44046054432069,-97.02976335842732
1630.99713473841,-13.10607867579551,-53.14958476469245,-94.40966866123756
1686.767630042839,-13.16815394817691,-53.38807714783043,-93.39956028269215
1744.445147793996,-13.23898928565351,-53.92122516990319,-113.495369605869
1804.094896927051,-13.30849403656392,-50.83409389217729,-101.321457816764
1865.784316138662,-13.36853315879095,-52.02824773069592,-88.45429432907815
1929.58315013169,-13.43182008488976,-53.89765965219737,-90.53860282813372
1995.563528467048,-13.49850912697511,-52.18465885136023,-110.158435584727
2063.800047111765,-13.56161911816744,-49.96633967202578,-113.4547528565552
2134.369852775576,-13.62649586032295,-53.09162107638807,-110.5381624708445
2207.352730131287,-13.69209853968728,-48.86331642616135,-122.1871721483778
2282.831192017577,-13.76447181679619,-49.74613385185444,-118.7797824673949
2360.890572726199,-13.82826433103831,-47.58453602769498,-127.0588775414775
2441.619124479056,-13.89516235379449,-46.71812782542096,-142.9562387743985
2525.108117204235,-13.96143364074033,-47.379582242957,-142.1263870095559
2611.451941723765,-14.02096915096924,-47.61252015431992,-153.124686288859
2700.748216469827,-14.08835203079184,-47.2394717137186,-141.1763996284233
2793.097897850002,-14.15211204293359,-45.61140961809639,-147.919981985024
2888.605394386365,-14.21951162237802,-46.51554808032709,-153.5591305801483
2987.378684757477,-14.27107412608972,-48.55314447578482,-159.0160963175262
3089.529439876696,-14.35604709975918,-45.66148329048234,-159.1301226608611
3195.173149144875,-14.40725248700163,-47.57882035727191,178.1925438345389
3304.429251020122,-14.47157023824979,-45.344508328387,-176.2988028095501
3417.42126805232,-14.53920469482537,-45.23430642156931,177.9277827166935
3534.276946534998,-14.6013063659521,-44.71519027394005,-179.1488958422721
3655.128400932487,-14.65929727249526,-44.28291967692002,-175.6295299705156
3780.112263245634,-14.72381190875099,-43.33521032760228,168.5194296145912
3909.369837484941,-14.78727900048138,-44.12665242543894,168.9850484828236
4043.047259425782,-14.84700066924161,-44.50298522971521,168.0145324179145
4181.295661826284,-14.90645533675961,-43.55186459597153,159.8863137644273
4324.271345294731,-14.97810885272685,-43.10321405797988,161.1696634472971
4472.135954999584,-15.04354077514443,-42.93714548531178,159.5899944410752
4625.056663421959,-15.10187129607735,-42.93147854411951,146.0750092740362
4783.206359357172,-15.16508315548595,-42.34413223423098,139.9894679533257
4946.763843379006,-15.23064522883327,-43.02591945125084,137.2823600953628
5115.914029987724,-15.28597232231919,-42.04508214354429,136.9237710883873
5290.848156670321,-15.35540688825491,-42.31850617095262,131.4726482014846
5471.764000109461,-15.42379716459859,-43.30744327698125,130.9805534163009
5658.866099785423,-15.48538669116192,-43.27082561594891,128.1026050180452
5852.365989223968,-15.55231063658486,-42.27426309400822,127.1170542876343
