#Digilent WaveForms Network Analyzer - Bode
#Device Name: Discovery2
#Serial Number: SN:210321B213B5
#Date Time: 2024-02-05 22:14:50.563
#Start: 1 Hz
#Stop: 2e+07 Hz
#Steps: 501
#Wavegen: Wavegen C1
#Amplification: 1 X
#Settle: 10 ms
#MinPeriods: 16 
#Channel: Channel 1
#Range: 5.51697 V
#Offset: -0.000289588 V
#Relative: no
#Channel: Channel 2
#Range: 5.57616 V
#Offset: -0.000284749 V
#Relative: yes

Frequency (Hz),Channel 1 Magnitude (dB),Channel 2 Magnitude (dB),Channel 2 Phase (deg)
1.000000000000002,0.00216376873150214,0.3441073316442747,-1.739666064819346
1.034194109919989,0.00300253511462859,0.3676620211286272,-1.799288270594985
1.069557456993193,0.001967473367541212,0.3944568396375304,-1.885191380428118
1.10613002224336,0.003868984496115534,0.4219816644995581,-1.981238298202854
1.143953153809745,0.001393715454808453,0.4544498086693297,-2.104452437491297
1.183069613694431,0.001529371268602837,0.4879437215495984,-2.231495901872083
1.223523626108092,0.0008189744433785096,0.5226243787784519,-2.350986633145254
1.265360927468933,0.0006774206010757223,0.560048786194894,-2.487279859395885
1.308628818111262,0.0004831561219998872,0.5994278531119299,-2.630752788834478
1.353376215762218,0.0001073558932725666,0.6387652930127723,-2.780247285463506
1.399653710847087,-0.0006752992411030185,0.6808762676104778,-2.946792214868562
1.447513623685706,-0.0008834717195118839,0.7256949966284686,-3.117727653165424
1.497010063644694,-0.0006293895117681838,0.7698937791599293,-3.299019837865025
1.548198990312284,-0.003061957329719492,0.8159047199219713,-3.488689915210628
1.601138276765035,-0.002042726472781871,0.8620680638567896,-3.697393984339712
1.655887774997836,-0.002666611743879283,0.90806312718799,-3.900723246768024
1.712509383591271,-0.003146718906466067,0.9553669069492894,-4.124460677333801
1.7710671176928,-0.003959756228223801,1.002208178579147,-4.357709732512504
1.831627181390858,-0.004339248816867066,1.047747373340954,-4.589937970157422
1.894258042563772,-0.006061180588146359,1.09457056737428,-4.846581320935002
1.959030510288013,-0.006261243022394146,1.140176931456075,-5.113304449767611
2.026017814893409,-0.008269628564993966,1.185185443104933,-5.398842284585101
2.095295690755726,-0.008010300271754329,1.233154741997386,-5.693555486366932
2.166942461920297,-0.00904489809106299,1.280378892356455,-6.019785887375591
2.241039130653486,-0.01000731843262254,1.328798851283534,-6.355450198057724
2.317669469022039,-0.01251489048845868,1.376089993391052,-6.706052792327782
2.396920113603975,-0.01395727690043701,1.426695075995399,-7.086827656369479
2.478880663437972,-0.01569725806811742,1.476267147762722,-7.484349704570342
2.563643781322099,-0.01629246968673577,1.524538634365784,-7.909098918354339
2.651305298576318,-0.01889945046437042,1.575833094460206,-8.343396899965386
2.741964323387274,-0.02050014305815676,1.625787176861441,-8.810386434382544
2.835723352857861,-0.02361718881204422,1.676442486240756,-9.303436915976704
2.932688388888149,-0.02817734581729039,1.725967411836765,-9.806016872634885
3.03296905801886,-0.02818079698102174,1.775693622480456,-10.33921526158535
3.13667873537267,-0.03156898876016911,1.825338746034948,-10.8940957708633
3.243934672833687,-0.03437157693577009,1.874729135238936,-11.47487998758356
3.354858131609812,-0.03699957557187283,1.923955311655358,-12.07021671408629
3.469574519328032,-0.0410405958132756,1.972711219604558,-12.70545827973092
3.58821353181752,-0.04514118804615806,2.021916732478705,-13.36122868116726
3.710909299740865,-0.04983068018888011,2.070366629163144,-14.04696730697302
3.837800540239305,-0.05324467041581057,2.118501671117543,-14.75637490867017
3.969030713763232,-0.0593855015404144,2.168679186774252,-15.49066770515646
4.104748186265447,-0.06399595223949449,2.214976097700801,-16.2545370483828
4.245106396940474,-0.06919436719840621,2.263043789839913,-17.04954850360528
4.390264031699487,-0.07529041127282145,2.310888646523376,-17.88464901514458
4.540385202577183,-0.08255088721577826,2.358551348521678,-18.74310387053865
4.69563963327318,-0.08885820266852293,2.404125224241635,-19.62786356944666
4.856202851037969,-0.09660801902995593,2.450968154007323,-20.56118960995767
5.022256385120114,-0.1047512077113184,2.496307863284701,-21.52153714062425
5.193987971999255,-0.1136951348346809,2.54250344848747,-22.52298439295755
5.371591767636888,-0.1226961553531614,2.58681926247401,-23.56363953596077
5.555268566984748,-0.1336277724421828,2.631774492144459,-24.64274832013935
5.745226030999271,-0.1428624501147063,2.674687091967157,-25.76168761219486
5.941678921418418,-0.1556046217335049,2.717068052013018,-26.93414248439461
6.144849343566667,-0.1703074256586656,2.75948699172501,-28.14219143555324
6.354966997462344,-0.1845175922726811,2.7994056022144,-29.41493203167323
6.572269437511447,-0.1986189976784401,2.837660018217833,-30.73137402237003
6.797002341081482,-0.2126645248274532,2.874392828367117,-32.10291081833539
7.029419786258816,-0.2300972196782461,2.909117658061151,-33.54501329111782
7.26978453910388,-0.247256890871833,2.940680242688924,-35.04745293168151
7.518368350728602,-0.2676913485508695,2.970490538374899,-36.62156494654472
7.775452264532366,-0.2903279462162494,2.99869606315925,-38.27896933039504
8.041326933943395,-0.3104047295452663,3.020715350113213,-39.99099410362112
8.31629295102519,-0.3327404039757845,3.038445982435021,-41.80806364211647
8.600661186319355,-0.3573756661764596,3.052069554675021,-43.71817090322594
8.894753140308906,-0.3847502902012691,3.060357116595426,-45.7228071663755
9.198901306899776,-0.4135525375439572,3.061602179465157,-47.84512699211609
9.513449549330996,-0.4458668587758711,3.056440072318771,-50.08361814094059
9.838753488939069,-0.478969379218852,3.041802407392893,-52.47150180681713
10.17518090721551,-0.5138681646852619,3.016572247450141,-55.00968700005828
10.52311216161256,-0.5506213563786209,2.978258025829072,-57.70397567804505
10.88294061556709,-0.5872584162712805,2.922874476594722,-60.60767529734841
11.25507308322846,-0.6252872549600081,2.846714299521942,-63.69412321689617
11.63993028939385,-0.6627196667213248,2.7446619944565,-67.02751654999709
12.03794734517035,-0.6967115796150453,2.614357543725111,-70.61665211315683
12.44957423990212,-0.727658981865708,2.449929848487468,-74.53057366756343
12.87527634991836,-0.7501623579488719,2.237244946846879,-78.78256424049444
13.31553496467765,-0.7617837608656752,1.960835300066129,-83.42618644158733
13.77084783090326,-0.7582060025857601,1.608980727805244,-88.55806130204286
14.24172971532455,-0.7334677778302818,1.148053695235339,-94.26291588576782
14.7287129866611,-0.6837069860160062,0.5383094671326543,-100.7383409341828
15.2323482175069,-0.5949336345362654,-0.2940634917107451,-108.372596235192
15.75320480679584,-0.4583290847365352,-1.584663192605819,-118.3154204790338
16.29187162355148,-0.1086912782914336,-8.015482696011176,-150.8090654432091
16.84895767264948,-0.01154756163209181,-19.20341388324675,-162.5951446857037
17.42509278334526,-0.01024463027317958,-20.05121802205227,-162.7499558288767
18.02092832134486,-0.009247734776309257,-20.83506889034627,-162.9337511728437
18.63713792522513,-0.007711257320471977,-21.57299430452888,-163.0107442041597
19.27441826803423,-0.007551018170578043,-22.26988640458104,-163.1487640096575
19.93348984493516,-0.007200084892742502,-22.93567167069927,-163.3043979733373
20.61509778778181,-0.00707187559289179,-23.59577276149977,-163.4171560147133
21.32001270754845,-0.005703279534137609,-24.21402483728041,-163.5374201718
22.04903156556588,-0.005188519136841435,-24.8023918225935,-163.6119876771872
22.80297857454805,-0.004862608587859528,-25.40790957799056,-163.8344956591407
23.58270613042925,-0.003074320003253877,-25.97169893497412,-163.9424577949411
24.38909577606389,-0.003601786746565479,-26.55128879776893,-163.9409866378687
25.22305919787965,-0.003227442738178028,-27.11622337159387,-163.9842211365045
26.08553925661029,-0.002306348078454731,-27.68416166643713,-164.0614630393397
26.97751105327289,-0.002421530991839848,-28.25195395679866,-164.0076586529496
27.89998303159616,-0.001309928334192332,-28.83524545422943,-164.1575901135844
28.85399811814426,-0.001079005959316653,-29.39504470341224,-164.1803312446269
29.84063490142719,-0.002059874661724467,-29.93560620801903,-164.121246500433
30.86100885132878,-0.001559979367988758,-30.52636896789556,-164.1597212432071
31.91627358023273,-0.0003615328696200836,-31.05017184005187,-164.1776011169747
33.00762214727158,-0.00100916897436704,-31.61524134478943,-164.0403053681597
34.13628840717271,-0.0003469329101886346,-32.16259506702394,-164.0227360005118
35.30354840522794,-0.0002701406205935668,-32.70816467202175,-163.918910841343
36.5107218199618,-0.0009262489773450668,-33.25617550487068,-163.8101565118153
37.75917345513163,-0.001234110993851738,-33.81650789986325,-163.5796315573207
39.05031478274425,-0.0009996058820128423,-34.34216201189565,-163.6656619207122
40.38560553883541,-0.0005864643249536444,-34.9156732012484,-163.4544578348596
41.76655537381557,0.0006631431811395309,-35.44867572475466,-163.662888217533
43.19472555924695,0.0001962913212024771,-35.95213162336772,-163.2156767371709
44.67173075298349,0.00168262330694673,-36.53113230331385,-163.3337444352614
46.19924082466698,-0.0003761890095474847,-37.06648365808084,-162.8560208887205
47.77898274364558,-1.392528498404925e-05,-37.50685543042952,-162.6721050402327
49.41274253144694,0.0003662253477748919,-38.06630724887902,-162.7916455663493
51.10236728101514,0.001179715039822891,-38.7026064744347,-162.2737267709518
52.84976724499371,0.0007354066353479388,-39.18948350400525,-162.4626444300143
54.65691799541463,0.0001192376570091907,-39.66125941431039,-161.9427515723563
56.52586265723754,0.0003044628548484717,-40.23015682552484,-161.8759333357409
58.45871421826108,0.00116203478809694,-40.75255172335784,-161.1757115841957
60.45765791802138,0.001559489018606062,-41.28602581560993,-161.3486208674134
62.52495371837517,0.002063866823018626,-41.93003869145549,-161.0664091172372
64.66293885856324,0.001694092173585733,-42.32636070810901,-160.7073652609008
66.87403049764232,0.002760484473389269,-43.04434959485307,-161.2297149689439
69.16072844727111,0.001175284277606871,-43.38682356975034,-159.7328663223214
71.52561799794347,0.001876821289601017,-43.94902549090632,-159.7876976617568
73.97137284185997,0.002268266426463809,-44.45298787827951,-159.5266930377448
76.50075809574685,0.002693603764665012,-44.98009158186112,-159.6791835445595
79.11663342703514,0.002389862422458759,-45.5740121179863,-159.2178137410204
81.8219562869383,0.002395852502868894,-46.10518784021113,-157.9532925764271
84.61978525408223,0.001771697042838898,-46.63697103383903,-158.5754963402133
87.51328349246582,0.002070637739200316,-47.16016339184012,-157.6085082650335
90.50572232766615,0.002137056205754955,-47.55979016676204,-157.3880473767958
93.60048494532599,0.002460474698815544,-48.27630743463167,-157.9023433377432
96.80107021611053,0.001814735997553412,-48.72724703429385,-158.0256882886329
100.1110966514526,0.003760149181546558,-49.36642531346037,-157.6323754536648
103.5343064945625,0.002430021227318229,-49.67973513878928,-155.2888802925839
107.0745699513272,0.002810402194329467,-49.90958814140582,-154.9482453981304
110.735889565878,0.004369398027323789,-51.03595575451911,-154.0349152850291
114.5224047457811,0.0029243233544447,-51.39650202028768,-156.6284216874008
118.4383964419593,0.001666559280016074,-52.08514581948619,-153.7531887029226
122.4882919886427,0.00340976893108704,-52.52748391883586,-154.7692018916957
126.6766701088137,0.003320229072884367,-52.85685633001705,-152.4562076171322
131.0082660908121,0.002811505698776151,-53.59574015176421,-155.9435660734815
135.4879771419482,0.002845657959626948,-54.18137559918683,-154.3647559108613
140.1208679251764,0.003314566810866985,-54.70736660796672,-151.3368764347337
144.9121762850938,0.00398157762762502,-55.27612697891917,-153.0289881029852
149.8673191697305,0.003338039941271205,-56.00092596471765,-150.6068909563845
154.991898754834,0.002828275683462082,-56.11230906573059,-148.7458840228006
160.2917087775643,0.002635017151866532,-55.96978621725802,-152.4895841731923
165.7727410867665,0.003942611527214163,-56.78184323654251,-152.3102462301763
171.4411924172249,0.003708869283149354,-58.81282930580683,-147.2123168085027
177.3034713955527,0.003070703773749472,-57.92207693077976,-148.3705541931688
183.3662057856475,0.002594468733176777,-58.15692367953106,-146.7872025862167
189.6362499818928,0.002229048655538479,-59.23790689359254,-140.6930475100566
196.1206927585873,0.003823779635216762,-60.58019891558946,-151.1891959660967
202.8268652843584,0.00161718598943413,-60.72403896383364,-151.4338219674636
209.7623494106177,0.001589973698301664,-60.54055460024596,-150.9821165159478
216.934986243439,0.00392228380734662,-61.61195595330564,-153.3637942481588
224.3528850085375,0.003302045467963042,-62.25295458211587,-143.2368962497728
232.0244322193856,0.002796709315707703,-64.10854134191364,-148.5925640515847
239.9583011588178,0.002750142454822163,-63.90418633269407,-150.2969073553123
248.1634616848552,0.00245518270303628,-65.77633052562233,-142.3098018797852
256.6491903718315,0.002848134502036522,-65.74845454961634,-142.9050441189849
265.425080998281,0.002743230236941772,-66.80980648820625,-152.91292338597
274.5010553934576,0.00188668183821974,-64.91114021002208,-147.5488807091687
283.8873746547333,0.003397038625780716,-66.92827872954697,-132.3209750173655
293.5946507485737,0.005319522147697718,-67.22779469160017,-126.3552547146546
303.6338585081905,0.003696463894536688,-68.09402891715366,-146.1764306718339
314.0163480414487,0.002941529674767332,-67.27865225158789,-135.2433115455304
324.7538575630501,0.004351759034784982,-70.54240464043843,-119.7688783414738
335.8585266655001,0.00193364379906818,-72.22745668713155,-120.6731069182379
347.3429100438651,0.004669601115121606,-72.31422964968914,-107.8086715078483
359.2199916898322,0.003437638337230319,-69.38509268669007,-127.9616556928342
371.5031995711311,0.003730400692654215,-73.36999051621402,-101.1130609816362
384.2064208128932,0.003696848476721519,-70.25287848430899,-122.6573736684697
397.3440173981331,0.002042066925817188,-73.46360619211841,-96.34212859428291
410.930842405094,0.003253843705623546,-73.69562939347435,-119.5715429215389
424.9822567998057,0.005095202303240752,-73.52179148707566,-104.3851257731471
439.5141468028623,0.002453381969718641,-78.78700785991522,-43.06465102393824
454.5429418500276,0.004623942244288809,-78.05963125429966,-99.33139344521857
470.0856331670016,0.002459636427689903,-79.07758297612699,-90.89196089395848
486.1597929793206,0.002467736058071897,-76.53934789600159,-86.31332721351545
502.7835943791325,0.00268696132808687,-75.39077709987957,-61.14316178340567
519.9758318712986,0.005378621726085457,-75.10505755112079,-81.6228995321442
537.7559426220412,0.003732612688065255,-82.14347285240137,-121.170704605112
556.1440284341854,0.003028463574479198,-71.39438156487887,-80.67807947138201
575.160878473807,0.004856185782560932,-73.99424735891999,-38.97863198372627
594.8279927740165,0.0032266563375884,-74.29425751382762,-119.2836943812747
615.1676065424164,0.002816773871224466,-72.60486384901596,-38.40635119763294
636.2027152997415,0.0009124409247343037,-74.89841165464435,-20.34152763323274
657.9571008780949,0.003858098449912058,-86.85464745982074,-26.6760223134251
680.455358308155,0.002203172864149314,-77.83678459129808,-101.1100269907184
703.7229236257881,0.007551852298913886,-78.12643172884148,-42.49881406193095
727.7861026294611,0.002633502914263909,-76.75822376922845,-32.16132679564486
752.6721006210117,0.002737143800845896,-75.36279415413233,-46.5453247972728
778.409053163354,0.005503728028955766,-73.46757311727517,-27.83961674058446
805.0260578899328,0.004107440619429979,-86.64321832983298,61.82934525234657
832.5532074018747,0.003591237861461822,-73.20795650573399,-44.9289534772835
861.0216232900103,0.004291362617687603,-74.76130931013964,-19.94011464388335
890.4634913202743,0.00272084238669445,-74.13078770239449,-35.33342037958648
920.9120978222149,0.005605339352864879,-80.01423084768616,-25.88931875660425
952.4018673217895,0.00366678982637044,-74.16253507433228,-80.07173669712736
984.9684014609913,0.005110630291654128,-72.09450751423697,-56.63334404498946
1018.64851924826,0.003632269559915329,-83.61746867625942,-108.8137090413769
1053.480298685267,0.005811750832687393,-74.00190111489194,-18.65071399440166
1089.503119817049,0.004289164991839798,-70.4118866836892,-24.1326789680506
1126.757709254242,0.004986345173084524,-77.83045062053161,-19.86904833903104
1165.286186217674,0.007934244873733145,-72.28954972598848,-32.91862887076479
1205.132110157441,0.004788773560569073,-69.64317560659713,-31.0613237678934
1246.34053000027,0.00215196726194836,-73.9665624461803,-5.107998074115002
1288.958035080831,0.006795180568396644,-72.63291086512992,28.3797856433801
1333.032807814635,0.006456154376584092,-71.93024427518877,20.75967261639634
1378.614678171994,0.006348547551576788,-78.14467421031596,0.9485053534401615
1425.755180014715,0.007651422018670329,-70.24074282113752,-82.53678767101172
1474.507609359128,0.00815315910702597,-70.96075351912498,-10.98144871537302
1524.927084631408,0.005877873154784387,-74.87125403360905,-50.64122777177256
1577.070608983259,0.007384010003226659,-72.41259759505954,14.48848762902628
1630.99713473841,0.003056671266872123,-73.16919035310784,-43.09622842578949
1686.767630042839,0.008843574172608967,-72.02704374210326,22.71174806902073
1744.445147793996,0.004355164020223891,-68.85577379721366,-11.93985731109495
1804.094896927051,0.005016791377835556,-70.40788394434695,-51.89332000861035
1865.784316138662,0.004034390751892727,-69.91379821900162,-53.96755202495535
1929.58315013169,0.007865669789691408,-71.79786829493477,27.410409092293
1995.563528467048,0.009304114892620534,-69.97147226647169,3.596540390043238
2063.800047111765,0.003860645382467304,-70.48442826017131,-52.12411408429875
2134.369852775576,0.007260834766968389,-73.28514055872959,-29.69353822581513
2207.352730131287,0.006417216964064585,-73.72599073925304,10.32878224658597
2282.831192017577,0.009081054029789046,-87.1226818486156,-131.082712724285
2360.890572726199,0.005979324941698273,-74.13063402297107,-27.25236688579407
2441.619124479056,0.008699590222498908,-77.79280942805099,-20.36359974719571
2525.108117204235,0.007408760455194147,-71.1961023755905,-70.51436601224877
2611.451941723765,0.006963548836110799,-71.20943913346647,-31.71505245165264
2700.748216469827,0.01422276827857248,-67.75350053691903,-35.38797009881307
2793.097897850002,0.01051832796494198,-72.03152297635575,-10.91320541811473
2888.605394386365,0.009336955356083584,-71.83152169915877,-2.456653356252161
2987.378684757477,0.01380185812584309,-76.43949058738221,-12.37769660744087
3089.529439876696,0.0109416397716439,-80.619215439442,1.042047738119095
3195.173149144875,0.0130713676348321,-75.65275716226155,-110.7870234940772
3304.429251020122,0.01489388887547424,-74.30023921000287,24.32476696994452
3417.42126805232,0.01402492246484201,-67.75216945780109,-12.31744309009133
3534.276946534998,0.01474963562775733,-69.62055934494998,26.04521871581032
3655.128400932487,0.01824234761925051,-77.37126187649859,163.6008387416246
3780.112263245634,0.01547234818325974,-78.2835981023146,7.029165849570035
3909.369837484941,0.01666492978764964,-74.47438682413247,16.13513533001101
4043.047259425782,0.01419641501669397,-70.4408563251277,10.89349864447784
4181.295661826284,0.01858225114766992,-75.92272761353289,-18.15644471122211
4324.271345294731,0.0193293762708138,-74.26600149601963,14.32902362404501
4472.135954999584,0.01840970102823888,-69.00099798415248,-25.21924127556983
4625.056663421959,0.01630046901145317,-73.59233711586279,23.24435564982208
4783.206359357172,0.02299814448149201,-80.01511664235402,93.21243927673925
4946.763843379006,0.0223434518487612,-69.37977360077858,-15.81262834335568
5115.914029987724,0.01952592557757394,-72.17486942280074,2.520258599253395
