#Digilent WaveForms Network Analyzer - Bode
#Device Name: Discovery2
#Serial Number: SN:210321B213B5
#Date Time: 2024-02-05 22:45:50.032
#Start: 1 Hz
#Stop: 2e+07 Hz
#Steps: 501
#Wavegen: Wavegen C1
#Amplification: 1 X
#Settle: 10 ms
#MinPeriods: 16 
#Channel: Channel 1
#Range: 5.51697 V
#Offset: -0.000289588 V
#Relative: no
#Channel: Channel 2
#Range: 5.57616 V
#Offset: -0.000284749 V
#Relative: yes

Frequency (Hz),Channel 1 Magnitude (dB),Channel 2 Magnitude (dB),Channel 2 Phase (deg)
1.000000000000002,-0.002607636168172084,0.2968947942493528,-5.222888256228032
1.034194109919989,-0.00213402761084909,0.3185204197814433,-5.434169779831208
1.069557456993193,-0.002343591797780819,0.3405710791325212,-5.646536372097216
1.10613002224336,-0.003195619390444054,0.3647276540231776,-5.868255049572021
1.143953153809745,-0.002960720562751988,0.3895175193796473,-6.119491016249881
1.183069613694431,-0.003688265576198103,0.417190245738317,-6.369106123303403
1.223523626108092,-0.00383999495359293,0.4462551210549743,-6.640261870568366
1.265360927468933,-0.004919266533350771,0.4778649042448375,-6.933408122580444
1.308628818111262,-0.004530152320762114,0.5092338860605049,-7.235128501931396
1.353376215762218,-0.006759589082235637,0.5440611920117275,-7.557717963708988
1.399653710847087,-0.006924855719514931,0.5785093631237133,-7.901783583750049
1.447513623685706,-0.0080050773233285,0.6154205721332056,-8.26233668752532
1.497010063644694,-0.007905238804659794,0.6513899748197227,-8.641912776267674
1.548198990312284,-0.009189546137002036,0.6887018247609727,-9.0355229158017
1.601138276765035,-0.00987831179553211,0.7274244615124997,-9.442983279510671
1.655887774997836,-0.01161641728893863,0.7647625260772457,-9.878874353281574
1.712509383591271,-0.01257900101159075,0.8034805067318813,-10.31642184019822
1.7710671176928,-0.01368662707174293,0.8403490319931693,-10.78231725831074
1.831627181390858,-0.01454699714025496,0.8776050410437969,-11.27355810620234
1.894258042563772,-0.01491503532811192,0.9141629058934609,-11.7679987176744
1.959030510288013,-0.01721812146111405,0.9523854743255938,-12.29105180856018
2.026017814893409,-0.01830417313353806,0.9892173207200027,-12.83259586109384
2.095295690755726,-0.02048018022821235,1.023465091789694,-13.39179776190821
2.166942461920297,-0.02119354009841615,1.058958929376395,-13.9802927450626
2.241039130653486,-0.02469489893402406,1.095751611533641,-14.59322624775076
2.317669469022039,-0.0266954169696055,1.129727317934128,-15.22850747235657
2.396920113603975,-0.02853596962464891,1.163462025619568,-15.89076136968113
2.478880663437972,-0.03134826463418669,1.197904286709545,-16.57628294980572
2.563643781322099,-0.03305144045541147,1.229087750195481,-17.2986995216764
2.651305298576318,-0.0374717233293656,1.26222411301244,-18.04739234222745
2.741964323387274,-0.0397283666409786,1.292958473659069,-18.82398597382849
2.835723352857861,-0.04336202784645898,1.322803855065904,-19.63869993482721
2.932688388888149,-0.04685347171213227,1.350668373532078,-20.48594250321177
3.03296905801886,-0.05026969959714762,1.378570891067218,-21.358774583244
3.13667873537267,-0.0539765883820094,1.402661372073939,-22.28200733721684
3.243934672833687,-0.05904826562014839,1.427154218674516,-23.24130142444275
3.354858131609812,-0.0641847345298881,1.449419721986031,-24.23392465581995
3.469574519328032,-0.0685528570545276,1.467731393179682,-25.26925553015383
3.58821353181752,-0.07404992835669506,1.485974617853838,-26.35312365446651
3.710909299740865,-0.07981461475047469,1.499571332215156,-27.47632230344657
3.837800540239305,-0.08622905161358442,1.511606046388628,-28.64481265475743
3.969030713763232,-0.09260439224463139,1.519481362048166,-29.85587585696715
4.104748186265447,-0.09829870269507376,1.524328814882548,-31.11512270554084
4.245106396940474,-0.1052855099307507,1.524730431437151,-32.42950409323055
4.390264031699487,-0.1130869552210878,1.522202750823707,-33.7950470678709
4.540385202577183,-0.1208139695486204,1.513784635595785,-35.20912290876529
4.69563963327318,-0.1287763193942373,1.500327267057642,-36.6951958863347
4.856202851037969,-0.1382152609522722,1.483444213882444,-38.21538123510012
5.022256385120114,-0.1468485779818634,1.459565015140945,-39.80541289472194
5.193987971999255,-0.1555616895267646,1.429383193492299,-41.46281494287487
5.371591767636888,-0.1648102423899831,1.392306933822433,-43.1783836995381
5.555268566984748,-0.1752484174635622,1.348750854279587,-44.95942572402712
5.745226030999271,-0.1862803534702695,1.29725070100138,-46.80979623601614
5.941678921418418,-0.1958928283582364,1.236762435622124,-48.72848160544275
6.144849343566667,-0.2060103718158955,1.168377766608992,-50.72892044817729
6.354966997462344,-0.2162925315993681,1.08754239184697,-52.79117711487545
6.572269437511447,-0.2269639391064152,0.9946954451587632,-54.94711989100705
6.797002341081482,-0.2373158287404101,0.8894901898344685,-57.178911622404
7.029419786258816,-0.2487401745948792,0.7735393751905719,-59.49675825608384
7.26978453910388,-0.2560856599368843,0.6412400328038469,-61.90245999683223
7.518368350728602,-0.2662438668542005,0.4931724764038338,-64.40737596176467
7.775452264532366,-0.2735927642619838,0.3279881074762054,-66.99537148850452
8.041326933943395,-0.2821957560952821,0.1428822747364739,-69.69313939528672
8.31629295102519,-0.2896017933164288,-0.06323954989969482,-72.49996837510572
8.600661186319355,-0.2942447371359868,-0.2936386519507411,-75.41599677282646
8.894753140308906,-0.2990343373860249,-0.542851335349256,-78.46203171775677
9.198901306899776,-0.3007963252368961,-0.8219588516603258,-81.64256460770235
9.513449549330996,-0.3004636496396557,-1.13528815426253,-84.93705497668589
9.838753488939069,-0.2989186576032017,-1.48231990787083,-88.40022382478472
10.17518090721551,-0.294161591216707,-1.862750161145665,-92.03172828285739
10.52311216161256,-0.2859113799345896,-2.304145052041503,-95.82506856464387
10.88294061556709,-0.2756703185265431,-2.793343627681363,-99.81512055264557
11.25507308322846,-0.2627632743248562,-3.332450747378761,-104.0669088948395
11.63993028939385,-0.2447727293388527,-3.961677890755676,-108.5787609097677
12.03794734517035,-0.2233263592938078,-4.68776521410101,-113.417779254417
12.44957423990212,-0.1983901979756852,-5.536988962859683,-118.6485925180428
12.87527634991836,-0.1686906924847421,-6.571513805223042,-124.4436918415394
13.31553496467765,-0.1351237546426193,-7.845983641029952,-131.0162578221664
13.77084783090326,-0.09695021851607867,-9.573161145480762,-138.7614687075726
14.24172971532455,-0.05391254257701212,-12.45584691594839,-148.343841647124
14.7287129866611,-0.03144377423331054,-15.19627087110807,-153.1901471488538
15.2323482175069,-0.02615938428089144,-16.67619122084611,-154.6062631410852
15.75320480679584,-0.02188078622667872,-17.78208002009027,-155.4102465064135
16.29187162355148,-0.01963022739045,-18.71696692809837,-155.9866061361244
16.84895767264948,-0.01693888705423002,-19.55992215976016,-156.484029442172
17.42509278334526,-0.01550491678689462,-20.34861907343282,-156.924242513075
18.02092832134486,-0.01482590449842321,-21.08663690206942,-157.3018325641282
18.63713792522513,-0.01283179319343089,-21.78967792815405,-157.6924463462861
19.27441826803423,-0.01146671858785417,-22.45304800090402,-157.9670017673714
19.93348984493516,-0.01104422426605357,-23.10884964789864,-158.3666755835892
20.61509778778181,-0.009704736130765255,-23.71359033784337,-158.6473636082615
21.32001270754845,-0.008881840940813642,-24.31719768120606,-158.8814535882636
22.04903156556588,-0.008203241326121951,-24.92603873934777,-159.1007376751304
22.80297857454805,-0.007800621661613389,-25.49966012725033,-159.3519077842311
23.58270613042925,-0.007272007935330416,-26.0638263970627,-159.4690490720164
24.38909577606389,-0.005715737849285696,-26.63422602764171,-159.7307759262955
25.22305919787965,-0.006076736887980024,-27.17745746222324,-159.8696171217443
26.08553925661029,-0.005741066746853341,-27.75090529324555,-160.0486267224506
26.97751105327289,-0.005482446871075516,-28.30391054954084,-160.2315948728824
27.89998303159616,-0.005176616073249845,-28.8506354084011,-160.2546202200284
28.85399811814426,-0.003980824736311935,-29.42841397762335,-160.2809547671503
29.84063490142719,-0.004087361144599354,-29.96949340392622,-160.3736083431787
30.86100885132878,-0.004011248916551583,-30.54247423750823,-160.5569404727963
31.91627358023273,-0.003307886571965679,-31.0673764057627,-160.4478637595396
33.00762214727158,-0.003458086252495932,-31.65815699579919,-160.4246040302439
34.13628840717271,-0.001967006837215506,-32.18857585462327,-160.6876753230838
35.30354840522794,-0.001622556613989716,-32.73813964937698,-160.4135526927546
36.5107218199618,-0.002527017986446572,-33.27901281384349,-160.3500283002514
37.75917345513163,-0.003071387360931013,-33.82585938369461,-160.3195896771701
39.05031478274425,-0.0008303107639664482,-34.36116355431739,-160.6382321638961
40.38560553883541,-0.001674371087609998,-34.89334491813544,-160.5911795477016
41.76655537381557,-0.001967543024005046,-35.39389003752801,-160.7564009095405
43.19472555924695,-0.001543603456931845,-35.98561999244479,-160.1273813165665
44.67173075298349,-0.002191280360505501,-36.52730856880926,-160.0214100777985
46.19924082466698,-0.002042304022315934,-37.05418617341677,-159.9033475892792
47.77898274364558,-0.001606212988549583,-37.51542822583588,-160.1017737549918
49.41274253144694,-0.0009672698941190232,-38.06817915130398,-159.8528669922152
51.10236728101514,-0.001242577597430951,-38.58570311175517,-159.3195718030319
52.84976724499371,-0.00024063848125802,-39.10981322389327,-159.1399271421389
54.65691799541463,-0.00056499118932923,-39.53948357657063,-158.8280786827866
56.52586265723754,-0.0001936428718883521,-40.11940651625799,-159.2796588393531
58.45871421826108,-8.570155019925731e-05,-40.66148888967476,-158.3807766308408
60.45765791802138,0.0002805810125384534,-41.10705162323328,-159.1065062499661
62.52495371837517,-0.0002857133930443768,-41.74697361075766,-158.6547409678899
64.66293885856324,-0.0002523067987234799,-42.12582271437726,-158.3874997893993
66.87403049764232,0.0005665436884696839,-42.77222790425425,-158.2553686244246
69.16072844727111,0.001480915329885655,-43.2026109797924,-157.9835367018787
71.52561799794347,-0.0002605892290904822,-43.6960618976504,-157.2194067031949
73.97137284185997,0.001366530305224459,-44.30011037501387,-157.1329428878809
76.50075809574685,0.0001367957421092943,-44.72574854969402,-157.1072063099507
79.11663342703514,0.001411681580445131,-45.3177271003286,-156.9929478495812
81.8219562869383,0.001169015486447021,-45.9519325836209,-156.686401857223
84.61978525408223,0.00150149069807803,-46.30136000160273,-156.1851721691654
87.51328349246582,0.00078998249430136,-46.92798683089173,-156.5625689463941
90.50572232766615,0.001223555793184629,-47.4902545186762,-155.9409419710263
93.60048494532599,0.00113472661724015,-47.82549030798122,-156.4057426006046
96.80107021611053,0.0007062626652009985,-48.60910097115401,-155.1558886304069
100.1110966514526,0.001265057946782519,-49.06375151947292,-155.7670388637677
103.5343064945625,0.001876357531774606,-49.3781797386893,-154.4228837646256
107.0745699513272,0.001559745769674166,-49.82416583147855,-155.2042661945347
110.735889565878,0.002983625661034379,-50.70711982141623,-153.2645760048594
114.5224047457811,0.001736218815703629,-50.94874410941092,-154.0607008975867
118.4383964419593,0.001035434988802932,-51.28914918729257,-152.305500244285
122.4882919886427,0.002193150468393386,-52.44905348970404,-153.2260994017342
126.6766701088137,0.002431980877807293,-52.60830490226833,-152.8834461595189
131.0082660908121,0.00255285287644154,-53.50862462660893,-153.1159577745443
135.4879771419482,0.0006285976808008989,-53.33433153975655,-149.0427917872854
140.1208679251764,0.003016516166256639,-54.5686409398502,-149.6388708593969
144.9121762850938,0.0005245190274875443,-54.50986146619948,-148.5708064619831
149.8673191697305,0.002236093590916088,-54.61986495901282,-151.0805097733492
154.991898754834,0.00207215300801839,-56.29434456513142,-149.8148978006046
160.2917087775643,0.002917353996895282,-56.15620471745012,-148.136646590249
165.7727410867665,0.00105389695037162,-56.79639065657231,-152.1723009081584
171.4411924172249,0.0006307565873586441,-57.76842768371225,-149.7263646528413
177.3034713955527,0.001547601864456849,-58.10902921652164,-151.9097317225631
183.3662057856475,0.00335185514005247,-59.15663451474462,-148.9857317532391
189.6362499818928,0.0008532425147519829,-59.01594974301417,-147.195966468891
196.1206927585873,0.002849644273649509,-59.76005436557517,-149.9910322317058
202.8268652843584,0.0008257344972273645,-60.70285426426491,-145.1532848910779
209.7623494106177,0.003181906261483193,-60.59434185975074,-144.0891127032036
216.934986243439,0.0008017499886470991,-61.43391070868802,-142.8090807164181
224.3528850085375,0.002110744223677343,-62.17116713282267,-150.1703639787881
232.0244322193856,0.001294734847531455,-61.77465632107982,-139.9385713791843
239.9583011588178,0.0003580728908145238,-62.46410386394997,-143.9815112689775
248.1634616848552,0.00273206113686141,-64.51222818399418,-141.2794805055263
256.6491903718315,0.002907597396143408,-63.64930637041181,-136.0805837887694
265.425080998281,0.002036498456428867,-64.35312281756035,-146.3551355921734
274.5010553934576,-0.0002957270178725759,-63.71120472409189,-152.8824405586928
283.8873746547333,0.002748698298151903,-65.29728431900698,-142.7078152507798
293.5946507485737,0.003297702359289958,-67.40360523367767,-141.5856253033138
303.6338585081905,0.001877285299355901,-67.40896483417319,-138.9907336614372
314.0163480414487,0.003488785514725595,-68.40247059638192,-137.0137348450178
324.7538575630501,0.002336697966680328,-68.41751242391277,-149.5956077207357
335.8585266655001,0.001648972083029891,-68.76736489866204,-117.596702561134
347.3429100438651,0.00448043944313364,-70.32302590684709,-126.5659089881295
359.2199916898322,0.001294666021633808,-69.22548315628597,-109.9161781388679
371.5031995711311,0.002646424988540992,-70.60558632789187,-128.8932259212926
384.2064208128932,0.002446781843650093,-74.45722335467291,-137.9137648543495
397.3440173981331,0.002585302246844788,-73.87200031571373,-110.8608616131833
410.930842405094,0.0008089724168645391,-70.98454517813902,-102.436162706216
424.9822567998057,0.003251093045766986,-73.51976729068549,-111.0987898630971
439.5141468028623,0.001554459186259996,-71.43739882512071,-86.30606528108433
454.5429418500276,0.003375787643277038,-78.52153821228087,-125.5852622696898
470.0856331670016,0.001899397793909191,-74.46126141705068,-63.66553493558493
486.1597929793206,0.00348018325686366,-78.46630999683106,-72.14006334466777
502.7835943791325,0.00272813367704213,-75.50428847938002,-136.8828206768365
519.9758318712986,0.001957276671841679,-73.84183263182371,-97.46825130338539
537.7559426220412,0.003748167728818817,-70.00009284903274,-61.34362403086806
556.1440284341854,0.002175189316098194,-76.57828186393579,-36.52316052992492
575.160878473807,0.001986699991671424,-77.05870469176656,-125.0694402896462
594.8279927740165,0.002289667254115038,-75.56423240300113,-36.66292033122468
615.1676065424164,0.00181679650464991,-76.91630455006407,-86.01917907146633
636.2027152997415,0.0006944867145824156,-75.04488657219312,-99.09443621194202
657.9571008780949,0.003286227246239545,-75.86447046623738,-51.00036094810719
680.455358308155,-0.0004056787879873277,-75.33798442861632,-84.95121964233027
703.7229236257881,0.001827339992029255,-72.97932237193677,-54.86367331694906
727.7861026294611,0.002181442431042824,-86.16353551308808,-151.0921842984928
752.6721006210117,0.002765171135262758,-73.24285697540743,8.276319498282533
778.409053163354,0.003771114527574955,-76.81320166652579,0.2080360646795896
805.0260578899328,0.001938232157696245,-82.2710545920167,-103.033595409273
832.5532074018747,0.002714821894911543,-75.47207456748752,-36.76311938393894
861.0216232900103,0.002615964920687933,-75.95395035732163,-53.04916508466114
890.4634913202743,0.001284583596883065,-72.46761167069492,-85.76722567471745
920.9120978222149,0.002886293606398449,-71.15639254284234,-76.28469266001869
952.4018673217895,0.005974097055151539,-66.80597188217493,-6.509683296889925
984.9684014609913,0.002701686372345071,-75.82424098339978,-53.73622241366313
1018.64851924826,0.0006142927129093829,-70.93469804612239,-36.4767778954934
1053.480298685267,0.004834520693146499,-77.25670667248438,-47.91349311641849
1089.503119817049,0.003891501371375988,-74.50755071934506,2.785027042946552
1126.757709254242,-0.0004340364722389962,-71.20029989024832,-9.512446266856983
1165.286186217674,0.00363313922616583,-75.35632711307258,-39.70271400186444
1205.132110157441,0.005235748945387196,-70.48587344157043,-32.22016560815609
1246.34053000027,0.004335616096534237,-76.03904450125775,-27.49836741347215
1288.958035080831,0.005159240329474648,-77.08806624080931,0.9874856151170945
1333.032807814635,0.004014663669435566,-79.47610584967477,4.025854950867554
1378.614678171994,0.005840848646285382,-70.21406076501293,1.859547704200992
1425.755180014715,0.008278271290569968,-72.4782652122727,-22.04238032450451
1474.507609359128,0.002651966312826334,-71.3650642426859,1.638130715240234
1524.927084631408,0.003514058059980838,-74.2187566479147,-60.74918353015265
1577.070608983259,0.00661254095427938,-76.89129862808511,48.74293317362802
1630.99713473841,0.004368413690080656,-79.95553799278264,55.53602542137378
1686.767630042839,0.005344608102650733,-70.70179265969426,-23.5346992545768
1744.445147793996,0.00499398227525949,-68.83663759271019,-40.9602579308224
1804.094896927051,0.006861122516703799,-72.84049419692884,28.34184796957245
1865.784316138662,0.006641764104254022,-83.72653661058452,12.75117111223328
1929.58315013169,0.007026806929208904,-72.21470697678693,1.52596842566507
1995.563528467048,0.005463248248946096,-68.40007788696221,-22.25241902601078
2063.800047111765,0.00812190053078295,-82.31596182157071,-25.10676873389374
2134.369852775576,0.005064473799768237,-69.83328168530579,-79.34448136479985
2207.352730131287,0.008501063729066944,-69.15506309634219,5.996248345425798
2282.831192017577,0.008391063198025685,-74.05781185477962,18.4556794622973
2360.890572726199,0.008510899645334193,-70.43113953627544,-15.26892067664153
2441.619124479056,0.007230287098279827,-77.28355124789809,-41.425576289281
2525.108117204235,0.008076061503249099,-76.41453299312032,-15.0095330456971
2611.451941723765,0.01129331621451712,-69.13762851400756,-20.25449386469737
2700.748216469827,0.01440817334062903,-72.67721915578429,-19.69874645354498
2793.097897850002,0.009435929055518131,-71.33974072641388,-46.86690455688889
2888.605394386365,0.01360203006355368,-67.54091232764007,-27.91291151909145
2987.378684757477,0.01442928848062127,-67.14391292453109,-10.600772911148
3089.529439876696,0.0184586911063529,-71.22431336103413,1.181912194176448
3195.173149144875,0.01237750387639088,-71.60381384293287,-39.40971433170718
3304.429251020122,0.01593850675461341,-66.14023685495229,0.2819881868120433
3417.42126805232,0.01465366822498045,-79.05783713503848,-62.27764103442205
3534.276946534998,0.01573355557678315,-76.49601941872491,-7.238125682175678
3655.128400932487,0.01745139569311154,-70.72676233207032,34.08309110110039
3780.112263245634,0.01724342161109038,-70.57630653607548,24.95691055112732
3909.369837484941,0.015911883946763,-74.10046430292661,-85.02845384742517
4043.047259425782,0.01923080388927687,-68.89253799514897,-69.26382086894355
4181.295661826284,0.01722190015175818,-67.97057489135975,1.239070896446194
4324.271345294731,0.02266723511331662,-75.32951697409347,-26.44144472449506
4472.135954999584,0.01858599540049921,-75.19342451075306,13.5672847765953
4625.056663421959,0.01604130544246304,-70.72225415455267,22.99529630867177
4783.206359357172,0.02061913707083314,-68.65893058864106,8.923698726185862
4946.763843379006,0.01963347655602324,-69.33605613073269,22.61084761497933
5115.914029987724,0.01652521025117224,-79.09783559644646,21.85412039583872
